!Created with skrf (http://scikit-rf.org).
# GHz S RI R 50.0 
!freq ReS11 ImS11 ReS21 ImS21 ReS12 ImS12 ReS22 ImS22
0.13 0.001840371858558783 0.0012849993696792846 8.640741174758204e-06 1.2429323062505349e-05 1.5273053816165863e-05 -9.782790624619307e-06 7.533660582030577e-05 -0.0004522771840915707
0.14241875 0.0016925832794280056 0.0004520115800152762 -9.201289178591025e-06 -2.1441169285979154e-06 -8.16488249242745e-06 -4.52441299148587e-06 -2.79134543358176e-06 -0.00030327048807689727
0.1548375 0.001048568189157299 0.00036165081683120064 3.0986695509591906e-05 -3.135006853928532e-05 2.2165137829970356e-05 -1.6056587259565831e-06 0.00015304312434786632 -0.00031400221101883567
0.16725625 0.0008151852023050996 0.001022250760174803 -2.6197669318882757e-06 -1.8332174698415524e-05 1.3307073366037232e-05 -9.914271426688619e-06 0.00016601898155720794 -0.0006015105804584063
0.179675 0.0015523955833932675 0.0017800588711755303 -4.548492795416886e-06 1.1334078878512242e-06 7.88074171745406e-06 -2.9727271514533437e-05 -0.00020099255048055525 -0.0008993617897281258
0.19209375 0.0029774634566020583 0.0016687265167881426 1.431906417825695e-05 -1.6012365117456958e-05 -5.34275557285457e-07 -2.2909894268634815e-05 -0.0008329760260191719 -0.0007891705681962335
0.2045125 0.00412774054638698 0.00040953070877787365 7.445082058102804e-06 -3.1979506687056996e-05 -1.1763724740716102e-05 -1.2625400732146216e-05 -0.0011954616213482024 -0.00022055423750295584
0.21693125 0.004135094676809233 -0.0014433280735833235 -6.994630528570371e-06 -2.389257812296737e-06 1.7795268006957947e-05 -1.4843320575059992e-05 -0.0010847008202726429 0.000378794484024375
0.22935 0.0029594654806104573 -0.0027072143011985174 -1.6104205274623292e-05 -1.0888001703376206e-05 4.725107892058877e-06 -1.952310157726218e-05 -0.0006673526104995709 0.0007030509021440554
0.24176875 0.0014423604424299498 -0.00278278111099258 -1.4228469743489557e-05 -3.0216715125901072e-05 -9.759784772613892e-06 -3.2849767485140494e-05 -0.00033947073991023955 0.0006638973284691246
0.2541875 0.000726136419418781 -0.001938915577861143 -1.5162046582187421e-05 -2.4580171371659744e-05 1.628577423473717e-05 -2.7965094430247487e-05 -0.00032565278317800233 0.0006259899193301848
0.26660625 0.0010852474198533666 -0.0010656700472369517 8.630470239281855e-06 1.2448924708186383e-05 3.7464370518789585e-05 -1.9896412092996067e-05 -0.00028315496047757717 0.0008208869929950429
0.279025 0.002003535796001022 -0.0010902200276309137 -8.269838139846448e-06 8.617589814368669e-06 -8.40161975465381e-06 -5.656968827758969e-06 5.7494158133720604e-05 0.0010732520756321147
0.29144375 0.0025210908786509824 -0.002044386619328683 1.0568155475380379e-05 -2.7110286033954775e-05 1.8921599958980026e-05 -1.187920679282754e-05 0.0005627862616070143 0.000998450441476358
0.3038625 0.0021270694699012747 -0.003179394327732682 4.011430530664067e-06 -3.623994034972446e-05 -6.75556860930973e-06 -3.8024639661905537e-05 0.000906173185693994 0.0005998273713052366
0.31628125 0.0011098820502702935 -0.0036659875533428484 1.7492863522940444e-05 -2.4946182786205132e-05 6.293644831251626e-06 -3.700463769704767e-05 0.0008381489724526316 0.00024398819264230884
0.3287 0.00032624840588699595 -0.003397931759164637 -1.2943683553136343e-05 -2.0084871078680926e-06 5.095734138931109e-05 -6.82776020922467e-06 0.0006960842126263595 0.00012844102988359004
0.34111875 0.0002295815800717411 -0.002971495760057488 -2.8760639622668255e-05 3.850261998737166e-06 1.4482726446566473e-05 -7.656329540818749e-06 0.0008461241442147443 0.00017201824938930182
0.3535375 0.0005396978525559977 -0.0031179265830207793 9.122844435385176e-06 -8.012080412599845e-06 4.70832728635545e-06 -3.983964985965363e-06 0.001169402439905225 -0.00010005538790439108
0.36595625 0.0005222798582609329 -0.00390942584650929 1.1910119243902526e-05 -3.3444614488894305e-05 1.0238229349781892e-05 4.361118582677782e-06 0.001145138961134484 -0.0007470519398557132
0.378375 -0.0003349064255543081 -0.004780018551906964 -3.1648274798389264e-06 -2.401826733185239e-06 3.599060769536806e-05 -2.568110748971221e-05 0.0005277931693172333 -0.0012234092001819677
0.39079375 -0.0016022562060923299 -0.0048701564036472056 2.5415434503329553e-05 3.825380927366151e-06 2.5935426229438227e-05 -3.405378187096364e-05 -0.0001630614126072835 -0.0009635176648838457
0.4032125 -0.002535615636461603 -0.00422519134929451 8.21926482704152e-06 -1.948618059651596e-06 7.765129437279719e-07 -2.019181329559912e-06 -0.00020139603795684116 -0.00023665261936565098
0.41563125 -0.002700064629087059 -0.003682950039465619 2.5463370858131344e-05 -1.963544464677209e-05 -1.213234280981404e-06 -2.342489317440281e-05 0.0006173613368331957 -6.648884929248721e-05
0.42805 -0.0026478261191772846 -0.0038871442906239046 1.072847057365389e-05 -8.082762423152176e-06 -6.604521840126224e-06 -2.3405651434170953e-05 0.0011930307735619188 -0.0010348031869951962
0.44046875 -0.0035013776604642818 -0.0047156836023078 -2.819773503929038e-06 -3.4637435149854903e-06 -1.468460630665365e-06 -9.186353060025458e-06 0.0004672250607578549 -0.00245091358320307
0.4528875 -0.005637211132478827 -0.004894957444677277 4.984926882513262e-06 -1.3225484202748952e-05 -2.3583856558395874e-06 -2.6601336151950546e-05 -0.0015108906274920355 -0.002777293461296256
0.46530625 -0.008171768065482353 -0.003231823424897702 2.566273082746554e-06 -8.662083901833385e-07 -1.9869241114917907e-05 -1.2049538996885701e-05 -0.003160303338467908 -0.001241890852599361
0.477725 -0.009215251423048708 0.00023376563134770118 -1.3541163590289567e-05 -2.1071036108905625e-05 1.7825435019880553e-06 -1.4525838897743639e-05 -0.002922113077702858 0.0010276055446766734
0.49014375 -0.007572844264980355 0.003710154209110578 1.0255983871100472e-05 -1.8588865694506415e-05 5.074155053262942e-06 -1.2500048506285457e-05 -0.0010840238321233205 0.0020397586530755043
0.5025625 -0.004100659528997339 0.005021751014202999 -1.4347258787874625e-05 -4.45708728075349e-06 8.163810923711444e-06 -2.8617807974805036e-05 0.00037371961429103623 0.0009538880521395895
0.51498125 -0.0011094912193989005 0.0032314976945351593 1.5419857362337154e-05 -1.8251227409593295e-05 1.0971728042214381e-05 -1.946826647947714e-05 -0.00026177798512910577 -0.0006552429647723262
0.5274 -0.0010255464293500401 -5.767361144487071e-05 4.130600809414853e-06 1.0106362262863858e-05 -1.8761449048177724e-06 -1.421814832385818e-06 -0.002392817730046005 -0.0004057888363855464
0.53981875 -0.004093972040989896 -0.0019390376830646474 2.124810618518529e-05 -1.0993947155009908e-05 2.3136376485178546e-05 1.475104575961917e-07 -0.0033670216523593688 0.002344637617014805
0.5522375 -0.0080295976582097 -0.00016863423311239776 3.8670309630672455e-05 -6.186949699436846e-06 -9.07895846263882e-06 -1.3328375793733591e-05 -0.0011316725062306566 0.005345601439989192
0.56465625 -0.009438155180972274 0.004712119688870934 8.429250436034053e-06 -3.2248601375778324e-05 1.525074304426027e-05 -3.3855394159833455e-05 0.0032667850215143753 0.005333765087820891
0.577075 -0.006512060668429341 0.009555837258799667 1.3293589542280914e-05 -2.7518358466448892e-06 1.3083474397800158e-06 -1.6934062692544926e-05 0.0062215378889572594 0.0015493452967752727
0.58949375 -0.0007840877685020198 0.010709230417673464 3.664520320689125e-05 -2.309870343743905e-05 1.3345597668530994e-05 -2.6616993606253515e-05 0.004931149431411585 -0.003135583903497543
0.6019125 0.003584239380113579 0.00721225304218122 1.0738662691597349e-06 -3.976601541756072e-05 7.939622186396012e-06 -2.082333220659137e-05 0.000535532867346667 -0.0045944530960649035
0.61433125 0.0032615704569216196 0.00196133846992613 -4.80713969063973e-06 -1.4915866981169187e-05 -2.613768389239839e-06 5.165453187195353e-06 -0.0026266544251743133 -0.001830144095117872
0.62675 -0.0014063756145569109 -0.0002951283068894977 9.086203620377251e-07 -3.700110648793186e-06 4.338023643760494e-06 -4.059395254223038e-06 -0.0015521249376395988 0.001900234806375393
0.63916875 -0.006308691800606111 0.003127159904384253 2.814587784222162e-05 -1.4576902023877745e-05 2.155093924947436e-05 3.544303277444935e-06 0.0024058107763313234 0.002320096754628231
0.6515875 -0.006332647307659448 0.010492249720845637 3.860554369949782e-05 -2.6095332402874333e-05 3.6956831559640976e-06 1.1199809159367816e-05 0.004581941960508871 -0.001458344108312537
0.66400625 0.0003768344254348762 0.016206175447231273 -1.6193023045861396e-06 -3.7439555808761854e-05 2.5547504799758175e-05 -3.606274233034832e-05 0.001959676390885336 -0.005783381727815151
0.676425 0.010397968558463205 0.015094940624183494 2.95223095899036e-05 4.50941203455033e-06 8.237577347322885e-06 -2.1320477554625692e-05 -0.0037278093520081725 -0.005725783552806426
0.68884375 0.01708854562398592 0.006577061298066481 8.925885925456966e-06 -3.388338334890876e-07 1.889680703335135e-05 -1.1585295283696235e-05 -0.006938376646581205 -0.00043576580788616716
0.7012625 0.015476506035631436 -0.00435656904057614 1.473918410792856e-05 6.696716440861417e-06 6.43514576274226e-07 -1.7634962856660933e-05 -0.004085095888363383 0.005337349799539911
0.71368125 0.006380850515665565 -0.0102698277347661 1.2760204824431155e-05 -1.4159019868465605e-05 1.6107400369377432e-05 5.5268833294861244e-06 0.0025481185777781767 0.006000716126820485
0.7261 -0.003657528424941426 -0.00693689066456746 -7.774007793380613e-06 -8.325215995955853e-06 2.8490381091450406e-05 -3.3556655799172e-05 0.006646540817755588 0.00048259059717009167
0.73851875 -0.006970023783125191 0.00323514629014291 3.826258217240395e-05 -2.8492870823067266e-05 1.3731233141757007e-05 -4.122679827962155e-06 0.004053882097292751 -0.006119760664176324
0.7509375 -1.5247113562371949e-05 0.012424459638627742 -5.752095031582322e-06 -3.069669307782906e-05 2.996501326946742e-06 -8.439908406401433e-06 -0.003272459892607819 -0.007379834905864905
0.76335625 0.012717788184174413 0.012554960703996502 -1.4674869964233345e-05 -2.952896397779153e-05 -5.225804021663979e-06 -6.302550711734573e-06 -0.008351574319123029 -0.0016742574010588324
0.775775 0.021949032537198945 0.0018175145954055167 4.7638610043701705e-07 2.321254184398804e-06 7.938735692452392e-06 -1.6521986580975172e-05 -0.006309380556232531 0.005645263512689309
0.78819375 0.020082719965585118 -0.013324975174164371 5.4541010175602985e-06 -2.691105017309796e-05 1.7725401458586908e-05 -3.2311752425352285e-05 0.000788063472455495 0.007783674957742322
0.8006125 0.007285394338699675 -0.022743543285075437 -2.4053049046532818e-05 -1.1829050002165055e-05 -1.1902948056763351e-05 -1.648441237032317e-05 0.005977242075621967 0.0029248863590584876
0.81303125 -0.008326582055978011 -0.019765893411917465 -8.010420723687022e-06 -2.0707351043134116e-05 1.8816978880618372e-05 -3.569429496108908e-05 0.00419640049253693 -0.003670538862010877
0.82545 -0.01634711418206011 -0.006511504388613936 2.3652398901778336e-06 -3.230492808908268e-05 1.0884710617399371e-05 -2.011740848158518e-05 -0.002480268509816267 -0.004883428980665989
0.83786875 -0.011403692597242346 0.007698676776979724 2.808915701818874e-07 -1.2370363060567108e-05 1.0556811461503017e-05 -6.660851982251686e-06 -0.006734679940910461 0.0009380710517111381
0.8502875 0.0025787210167158418 0.012401920192600759 5.760185250348428e-06 -9.168768971169673e-06 1.4276396967438098e-06 -1.8560450731528546e-05 -0.0033253180664615445 0.008142412575714391
0.86270625 0.015047154066306297 0.003883114332577616 -7.638666262765247e-06 -1.9082179727117125e-05 1.9500263801912947e-06 -1.5899613004191246e-05 0.0055831563265858865 0.009157765942607712
0.875125 0.016096909119494764 -0.012195402314969987 -4.706387695463209e-06 -1.1064476743167541e-05 1.2349938153680177e-05 -1.4181573797237604e-05 0.012023678591989311 0.001785534000189858
0.88754375 0.003474263133634962 -0.024170411597926763 2.823354005028744e-06 -5.64878084506742e-06 -9.754114150109729e-06 -1.2449668873782628e-05 0.00966624796912623 -0.008268300826099504
0.8999625 -0.015016605893596463 -0.022510465724662764 -2.0661183040733718e-05 1.1647482455583093e-06 1.6044093712246643e-05 -1.1317535481344516e-05 0.00015390181609170486 -0.012334817201715934
0.91238125 -0.026797258075800717 -0.007168556203344566 4.493914810312542e-06 -2.8348443380522706e-05 3.3838243526492397e-06 -2.1021289158148015e-05 -0.008351855982185793 -0.007258158519930335
0.9248 -0.02349104271929216 0.012041999225712365 2.7615152694434857e-05 -8.686847063565123e-06 -3.6290635680844506e-06 -1.0197314073650582e-05 -0.008829281739228447 0.0018113875713833905
0.93721875 -0.00731624931146305 0.02237169629727852 -6.337272595638695e-06 -9.95201664396902e-06 1.2953378652905185e-06 -1.927961489689487e-05 -0.0022360751309179194 0.0062480683696070375
0.9496375 0.010639063781343695 0.017085619220627266 -3.5614130953348657e-06 -9.464404813488442e-06 3.415280776754573e-05 -1.3192250482390727e-05 0.003940000136605336 0.002764225569389395
0.96205625 0.017658227484971343 0.00018411621919662847 2.0821920819235223e-06 -9.647076480160795e-06 1.7948508932896374e-06 -2.4377506553507518e-05 0.0031044697925514835 -0.003945741605117809
0.974475 0.008639598900519407 -0.015704718270831915 -5.528287273608667e-06 -1.3484070294891305e-05 4.577585055735362e-06 -5.435756139554703e-06 -0.0038812659535313065 -0.0059322552727114125
0.98689375 -0.009839425937194337 -0.018435471584048787 2.5111530038080565e-05 -2.0890832239478373e-05 1.598189363603467e-05 1.4611818341880558e-06 -0.009468083682690559 0.00018980383667936522
0.9993125 -0.024349772283510714 -0.00517570387403104 -3.236331758389695e-07 7.6027188219939166e-06 -7.908311072268672e-06 -1.925926262298297e-05 -0.006826687975985152 0.009233636335755252
1.01173125 -0.023628467628228893 0.015459275220576437 8.390542623124608e-06 -1.799998421218109e-05 7.73247613664948e-06 -9.627068287911066e-06 0.0030161337059084713 0.012555558782293865
1.02415 -0.007106620503710138 0.02918019423733163 7.098272124764593e-06 -1.1311503400688802e-05 1.611714352344809e-05 -1.690988756186724e-05 0.012101068698406672 0.006138288951542729
1.03656875 0.014570304821734442 0.02599012846707538 -2.680126277508746e-06 -3.2631698553193493e-05 7.882313314399678e-06 -3.224091647982842e-05 0.01238593715057633 -0.005122510399307206
1.0489875 0.02658831197766071 0.00774290320246054 1.361415056977236e-06 -1.6078560525159404e-05 7.806954039093981e-06 -2.5448495460758363e-05 0.0036315896118611917 -0.012018927925552716
1.06140625 0.020766496396848032 -0.013068069512836886 6.939280106721434e-06 2.881274752654611e-06 4.199061877314582e-06 -2.7073011222599073e-05 -0.0065558889147849676 -0.009005319013791055
1.073825 0.0012088200517270911 -0.02178655863807638 2.755713885266243e-06 -1.7944843561061616e-05 -1.0740884361888252e-07 -1.9942121038761956e-05 -0.009500918367102497 0.0003940536980706521
1.08624375 -0.018026380710625185 -0.01203062626270442 -1.869501130474383e-06 -8.860639969401342e-06 -7.513100764490097e-06 -4.826797687128764e-06 -0.0035075825074760464 0.0072694378990544
1.0986625 -0.02267363434983062 0.009547857197504096 1.668118422684698e-05 -2.5896924949084427e-05 1.4223084242791968e-05 4.495184388249848e-06 0.004725603283551377 0.005493035825473714
1.11108125 -0.008707523428775569 0.027775123116681337 3.784937626768784e-07 -2.5118643672013028e-05 -1.8988129614793885e-05 -2.9199022889631675e-06 0.006944102671095053 -0.00231307194145337
1.1235 0.015221986969031522 0.02954046951349465 1.7245773392045513e-05 -3.058144976967428e-05 8.931253170484703e-06 -1.3261486822729886e-06 0.0009809179508654144 -0.007886677415926939
1.13591875 0.03282917289191682 0.012433382130843535 -5.821855790979108e-06 -9.788697096562917e-06 1.5743697176342656e-05 -1.8456420763497036e-05 -0.007035899233907109 -0.005087003439189504
1.1483375 0.03202707548944084 -0.012052268081541235 -1.207349210748641e-05 -1.0547463027328826e-05 6.802153758669667e-06 -3.817473871494854e-07 -0.008569165319679795 0.00375797781642242
1.16075625 0.013630978344041282 -0.027522532514321043 1.0170470825280026e-05 -1.0999344092419353e-05 -2.0366472922693612e-05 -1.8462143455943612e-06 -0.001388466288653449 0.009958258261721413
1.173175 -0.009358727166953013 -0.02364498196858764 -7.843176508413115e-06 -1.3610483368313009e-05 -1.939674963038586e-06 -1.6533066307779718e-05 0.008330773217184475 0.006921427749845907
1.18559375 -0.0203570365234672 -0.0037126922304362435 1.2449310158687235e-05 -7.593966337535022e-06 6.337933260710582e-07 6.475743809745449e-06 0.011313142789282951 -0.0035227631880233685
1.1980125 -0.011659470291466424 0.017707196951412454 -6.7699602244226755e-06 -1.628130266825944e-05 1.3330973491622574e-05 -7.716345815669076e-06 0.004098340550829157 -0.01260462263582441
1.21043125 0.01179931318083935 0.02388967569848899 4.3577197551281895e-06 -4.246322254229795e-05 2.0479331608843183e-05 7.24779087790497e-06 -0.00808825878360811 -0.01170000737059132
1.22285 0.03267222049107685 0.008980798870467991 -1.4270581519717282e-05 -1.5668213522208136e-06 1.7413527479516003e-05 -2.0156534471081835e-05 -0.014720707356137041 -0.0010959558527208278
1.23526875 0.03531333253612299 -0.017975607696841166 1.7039375749388036e-05 -2.2563968221093623e-05 1.5108890054793385e-05 -5.720712852006363e-06 -0.010144800405415159 0.010340332209116433
1.2476875 0.01652418438612139 -0.03880343628305817 -1.267706754215622e-05 -1.9638010271731613e-05 3.727611276722263e-05 -4.2254729006909946e-05 0.001259871466073523 0.013187924299581207
1.26010625 -0.01183510319846151 -0.03904385246931881 1.0075051793264194e-05 -1.2495558970298221e-05 2.094958999787147e-05 -3.179482798895743e-05 0.009263720750772855 0.005929203072888131
1.272525 -0.030722532787729285 -0.018380229671359407 -1.526982141364245e-05 -2.9534326053666893e-05 1.5928541592888866e-06 -3.7660680143606625e-05 0.00726782076254888 -0.003555646753871774
1.28494375 -0.027207195778236375 0.008914039145738002 -1.545133846556093e-05 -1.809618884146195e-05 1.3207341005398832e-05 -1.4364054690708197e-05 -0.001414848550266603 -0.005648392032806956
1.2973625 -0.0038681103069050445 0.023028105510947267 -1.930971548006875e-05 -1.3020737054044471e-05 -1.7886920040635963e-05 -1.1529404603133062e-05 -0.006710874722260389 0.001701423139942601
1.30978125 0.02211540482425355 0.012933213056933348 3.102966010848861e-05 -3.213873038556862e-05 -1.6453484718935227e-05 -6.105719920700517e-06 -0.0016329673336430636 0.01051891555712142
1.3222 0.030739188225475344 -0.015097062031273126 3.006086763713125e-06 -4.512567091310053e-06 -1.5177190648335207e-05 -3.693263835697031e-05 0.01030719017472483 0.010472236561962785
1.33461875 0.013762775084090498 -0.04148950248732085 1.8099663917655936e-05 -5.403672616158955e-06 -1.936593424723804e-05 -2.6182756112616807e-05 0.018076193337643934 -0.000995766552344282
1.3470375 -0.019180718996754876 -0.046584583840899266 -9.78518558267161e-06 6.635192057184245e-06 1.0042724459956007e-05 -4.270212000607393e-05 0.013019329437433556 -0.015355686076809457
1.35945625 -0.0461109979044658 -0.02501994964501085 1.7719026269309025e-05 8.35794290295606e-06 2.217715464940802e-05 -4.4396095290475964e-06 -0.0021499284088042324 -0.02044179607880654
1.371875 -0.04852088619551348 0.009658282306523141 1.4262152460400633e-05 -1.9166032584802944e-05 9.580451552335863e-06 7.4603811994339645e-06 -0.015392529829085668 -0.01160897815391188
1.38429375 -0.024535957304451062 0.03403363573475242 -2.381570518677103e-05 4.4879174422339965e-06 5.332547805510337e-06 -2.6055697686456965e-05 -0.01609406016198799 0.003485172332206368
1.3967125 0.008704783723299012 0.031480093262138374 -8.55601651908913e-06 -1.0171288074194925e-05 1.9260110441611533e-05 -9.079243967007897e-06 -0.005009156017517799 0.011667898573287023
1.40913125 0.027091475170123027 0.00414472763445408 2.295431204519917e-06 -1.74723495797373e-05 1.9081477487735422e-05 -1.2211503433386873e-07 0.0063386754558759535 0.0067709724842734
1.42155 0.01656365161165068 -0.027572932281304263 -1.2615628478774896e-05 -2.056794437373114e-05 2.5700476098954248e-05 -7.271697389076686e-06 0.006771452372289037 -0.004721497472738855
