!Created with skrf (http://scikit-rf.org).
# GHz S RI R 50.0 
!freq ReS11 ImS11 ReS21 ImS21 ReS12 ImS12 ReS22 ImS22
0.13 0.0018989755236834608 0.001301701441132818 2.596995669879038e-05 -9.472347247651422e-06 2.633709041860565e-05 -7.470975670079639e-06 7.818359073176004e-05 -0.0004936317644053835
0.131 0.0019010586091932778 0.0012045585364536791 -5.458474346741721e-06 -3.817782922723337e-05 -1.066447484479194e-05 -3.185518281956264e-07 3.048803007562864e-05 -0.0004613021279710018
0.132 0.0019351279931457254 0.0011209878467497644 1.0653173840596386e-05 1.5454709696951526e-06 2.052135811213819e-05 -1.6310865349919523e-05 6.157678809431399e-05 -0.00043406111606641317
0.133 0.0019432832193371596 0.0010567898617657044 1.0123588266160315e-05 1.5383790399941652e-05 1.3434914627511295e-05 -1.5317477296461424e-05 1.6483176940891512e-05 -0.00042172358677767955
0.134 0.0019167982268698874 0.0009684412961983935 7.13720383053115e-07 -1.9632349268938642e-05 1.8274203830879412e-05 -5.764916390650376e-06 5.264838768975202e-05 -0.0004076328532331399
0.135 0.0019021416019861957 0.0009274555338289371 1.3805079079581024e-05 -2.6674523598802627e-05 -1.6908323705874796e-05 -1.1586855317482993e-05 2.7980128038790365e-05 -0.0003966369029388332
0.136 0.0019065597925402595 0.0008491666284154217 1.2259062996139168e-05 -2.392050760476073e-05 6.486866268453277e-06 -7.855003275571251e-06 2.4655840753586292e-05 -0.0003734445261824672
0.137 0.0019150169455411793 0.0007456113294682623 1.0003269668714494e-05 -2.158641313504155e-05 7.338971737788116e-06 -1.137303453653313e-05 -4.2330141394012815e-06 -0.00034879559721598147
0.138 0.0018426879389282062 0.0006924631501022517 4.9493894693716105e-06 -2.848203276912547e-06 -3.35266099162707e-07 -1.5365027795427163e-05 -3.508076734989403e-06 -0.00035002559847131136
0.139 0.001825428865105377 0.000641555304712727 1.1554001192694536e-05 -2.9325677491790063e-05 1.1961403285527692e-05 -9.875295350716152e-06 2.1616864797198578e-05 -0.0003153135067053018
0.14 0.0018018210384240184 0.0006029150350671592 1.7688711010245408e-05 -2.9237665686128712e-05 1.7840442146235533e-05 -2.6487104034894558e-06 -1.7825772115083464e-05 -0.000335324194398788
0.141 0.001765690298360191 0.0005332837977270163 -1.569686300962442e-05 -1.2762964575546015e-06 -4.81246157748348e-06 -2.683259821419823e-05 1.914411051352537e-07 -0.0003120004543433849
0.142 0.001718118743359887 0.0004808787100494468 2.0960744461511747e-05 -1.5571035776127555e-05 2.384239207129387e-05 5.237574247684672e-06 3.1120520232145238e-06 -0.00027496841836217916
0.143 0.001679022919913441 0.00042017799721450524 9.349627326976962e-06 -1.2617374789347445e-07 2.7236670677481618e-05 -1.3172906929679396e-05 -8.485879316542384e-06 -0.00027650987559419565
0.144 0.0016466085572477726 0.0004050351179195712 1.1093220561651256e-05 1.8644580926000307e-05 -2.1218606027494442e-05 -5.103317502173337e-06 4.008925720159685e-05 -0.0002599924963257812
0.145 0.001576142488558289 0.00036259392757389874 2.9020634758085974e-05 -1.1883627619270693e-05 4.31761335183297e-06 1.334041223821918e-06 3.161997599984315e-05 -0.000250737796412454
0.146 0.0015187278554237545 0.0003370605083596307 -2.8990649062153103e-05 -7.891019115140854e-06 2.8852301402784615e-05 1.4416554929111581e-05 2.9911759930159804e-05 -0.00027660698052494215
0.147 0.0014887180063621586 0.0002958606518797375 -5.759311253295137e-06 9.055286684053113e-06 1.1451637076998912e-05 -2.4685421978106746e-05 4.5622270863406396e-05 -0.0002764472864685165
0.148 0.0014438164869042284 0.00027221814678762526 8.8895243524414e-07 -4.2054721118799366e-05 3.689112009303301e-05 -6.650224351948908e-06 6.266770857026437e-05 -0.000248243864267893
0.149 0.001360379200317423 0.0002964479016834875 -9.848710581108997e-06 5.524366742080313e-06 1.3084919479265727e-05 -6.17044916044097e-05 5.945065894583478e-05 -0.00025512727292169
0.15 0.0013390531163058475 0.0002940845391702906 8.31597914675031e-06 -1.5047150496486138e-05 -3.1099792497394194e-06 -4.478188822761239e-05 8.000447752773226e-05 -0.0002458292109083327
0.151 0.0012675822011839887 0.00027040405232137073 2.2536613026101865e-05 -3.264123701990739e-06 1.5364456484382735e-05 -9.883490958755706e-06 0.000125513811387236 -0.00023987064827584782
0.152 0.0012199180915084184 0.00028501506097377324 3.4505007603317175e-05 -2.4774036296893775e-05 8.27213324781626e-06 -6.852713398984027e-06 0.00010240400904581647 -0.00029069073062898925
0.153 0.0011837551401756429 0.0003137827706615148 1.3415636468892021e-05 -6.8160341996750765e-06 1.3817141374700089e-05 -2.0669660351265028e-05 0.00012341114329637726 -0.00026664681961707565
0.154 0.0011179939848331428 0.0003287619417697454 1.155752020564266e-05 -6.927846548549961e-06 2.2887192896340912e-05 -1.606884326382872e-05 0.0001200429995381222 -0.0003037747374646894
0.155 0.0010721549715477746 0.00035591579951801836 -8.411306640273623e-06 -1.3561506587653861e-05 -1.3235667407461082e-05 -1.343202807217183e-05 0.00014365145234227796 -0.0002855803165775414
0.156 0.001030162604931756 0.0003976196375471706 8.223739227773804e-06 7.713431001822438e-06 2.716940287624288e-05 -3.150991674248615e-05 0.00013966313732794277 -0.000344393309597709
0.157 0.0010091734243328945 0.00043121355807331164 -3.203766446568981e-06 1.3441499828459728e-05 8.550660255687513e-07 -2.021677119830363e-05 0.00014898706111259185 -0.00034973125948976105
0.158 0.0009436721119397294 0.0004446911438832967 2.4067576228658036e-05 -2.7920247195778035e-05 3.520985207061802e-05 -3.0840011835974274e-05 0.0001633451866451015 -0.0003609031574064406
0.159 0.0009251475580437779 0.0004989708211082253 -8.023238838807499e-06 -1.4842055635291212e-05 -8.169565278653661e-06 -1.1766099833573204e-05 0.00017857165974071964 -0.00038874517257023395
0.16 0.0008777333142869932 0.0005543524461306556 -6.280262866130059e-06 -5.59458850084582e-06 4.32100390173347e-06 -1.8566114435955888e-05 0.00020393026725150625 -0.0004186984539018207
0.161 0.0008441327436355844 0.0006084753512953559 4.0927376066364507e-07 -8.216651255595715e-06 -2.138794697799448e-05 -1.6171910028037066e-05 0.00018412043167989313 -0.0004450208455315895
0.162 0.0008594157348835958 0.0006795061168632753 1.4631587363388867e-06 -1.3599853138988813e-05 -7.475837262045879e-06 -2.1866262643547085e-05 0.00021538847607660422 -0.00044795053322786157
0.163 0.0008338168083262568 0.0007101337881757669 9.880560358074002e-06 6.106826128698547e-06 2.3947651440816248e-05 -1.998732885372299e-06 0.00020027694611718413 -0.0004925096775768845
0.164 0.0008370929657248209 0.0008028199835811304 2.5909689076184855e-06 -2.612394922505922e-05 2.87756732748343e-06 -2.3071711509881564e-05 0.00019734395456601225 -0.0005360493669125605
0.165 0.000855364402947359 0.0008797345088083323 -2.0910125974906994e-05 -2.0677626897577014e-05 3.097749290810098e-05 -6.774818769338904e-06 0.0001839967362029991 -0.000546439453092374
0.166 0.0008531690519379761 0.0009296063316876569 2.6904119444728043e-05 -2.5632341239120644e-05 6.954144203423339e-06 1.2869598354474399e-05 0.00015893275559455863 -0.0005498755678512153
0.167 0.0008446428715415072 0.0010084897652040358 3.031891595576428e-06 -1.090665611698082e-05 1.46415140141898e-05 -2.6580421710657168e-05 0.00016221717923890346 -0.0005932521690166552
0.168 0.000909213447294223 0.0010334145730941367 1.2662201067411925e-06 -1.002426346218372e-05 1.4774246883950264e-05 1.0455004495279997e-05 0.00014162744521267108 -0.0006286903571983088
0.169 0.00091477894299512 0.0011340776228932667 -9.028944840895348e-06 -2.258647601352116e-05 -2.3228333593415555e-05 5.797312237276863e-07 0.00013984939043989273 -0.0006579396530557272
0.17 0.0009252006604661655 0.0012188550896102236 -1.3895883660442072e-05 -1.6455387432681664e-05 -2.500703593834634e-05 -1.4597384057884935e-05 0.0001193877826455586 -0.0006701333341767849
0.171 0.0009879338418146675 0.001259357427835319 9.54455100722131e-06 -2.5396020692203327e-05 3.374477295792475e-05 -2.7774566952430385e-05 7.029758160629441e-05 -0.0007182611589633529
0.172 0.00100652987694545 0.0013536733550519654 -3.6875538536342086e-06 -1.019413760510918e-05 2.7246030443346367e-05 -6.897122162237578e-06 6.98872969648274e-05 -0.0007326126627957119
0.173 0.0010902882407246087 0.0013967807343276456 4.3678334861641334e-06 -2.2519733427721024e-05 1.2059579312850562e-05 -1.7780833553535727e-05 2.7307446368349307e-05 -0.0007729178280988958
0.174 0.0011348486941630575 0.0014962090906068175 7.655107693122646e-06 -6.123734454186637e-06 1.3222860571051735e-05 -1.6712102062440546e-05 9.85861368083123e-06 -0.0007610278558983997
0.175 0.0012363158319891154 0.0015293860248700112 -3.065152427625279e-07 -5.663932355746026e-06 1.9336622650018296e-06 -7.387505760257461e-06 -6.0272643726965736e-05 -0.0008216775737263155
0.176 0.0012536146538829358 0.0015735858774993366 -1.4649849872517552e-06 -3.015605161181129e-05 3.4587084968307346e-05 -3.729094243832069e-05 -7.035090382714461e-05 -0.0008558375195838239
0.177 0.0013523648853697799 0.001627395658875589 -2.291436978832557e-05 -1.8700993943607832e-05 -3.25576175371978e-06 -1.9150746354453746e-05 -9.19102174271245e-05 -0.0008548404223343196
0.178 0.0014362068511111874 0.0016545576362469517 -1.8754440654551307e-05 -4.138982888351431e-06 1.852276302756753e-05 -2.343023047653195e-05 -0.00013373960723980067 -0.0009079958483208561
0.179 0.0015187025929955327 0.0017154023685303328 7.041991097830462e-06 1.9920733477232958e-06 1.1680928834489789e-05 -1.861099673485415e-06 -0.00017193809122433942 -0.0008871277842972861
0.18 0.0016057163809644983 0.001739907757810886 -5.711698897745729e-06 1.8288955736827016e-05 2.040966467928143e-06 -2.7363547743401104e-05 -0.00022505367776622383 -0.0009036908043403161
0.181 0.0017390091021466751 0.0017686634569247359 -2.404604549725051e-05 -8.15887614113421e-06 1.330876186688565e-05 -1.5164260103719835e-05 -0.0002716420803916746 -0.0009184277328881686
0.182 0.0018259244008190386 0.001806237651985606 2.9560401002206316e-05 -3.126522478122823e-05 -4.850368632871081e-06 -3.1442060896348085e-05 -0.00033674990633644037 -0.0009178074110949232
0.183 0.001953112014263874 0.0018287891572634925 -7.686813978923996e-06 -1.758004528045462e-05 -1.576418973545343e-05 -1.6661969647213697e-05 -0.0003631637728139733 -0.0009260156456261952
0.184 0.002072430284848124 0.0018138513311141253 -7.636717079458622e-06 5.151794993065474e-07 -1.002437360364512e-05 6.779438794507959e-06 -0.00043899634884752447 -0.000917475730334152
0.185 0.0022031170448081182 0.001852092791116889 -4.912043543126899e-06 -4.134264687640309e-06 2.0474183708635453e-05 6.077257936369068e-06 -0.0004669888571380518 -0.0009071706651710318
0.186 0.0022789393679831854 0.0018503417061699547 7.295486593403406e-06 5.478850818541488e-06 6.706378638049848e-06 -1.2099600029790952e-05 -0.0005235473719248248 -0.00091936119277338
0.187 0.0023986879810425498 0.001834738871087626 -1.867226565329416e-05 -8.669852965988886e-06 -1.5534991198731648e-05 -5.873573243460707e-06 -0.0005977814931155226 -0.0009008789816893523
0.188 0.0025048956858858126 0.0018162628574230175 -6.293568792037793e-06 -5.279469052238731e-06 -1.7437289161224576e-05 -2.8793272673547783e-05 -0.0006553145385730603 -0.0008875034949390887
0.189 0.0026439011307604794 0.001787533102340672 -2.8158969282220978e-05 -5.318306518245842e-06 1.362898156748289e-05 -3.1639015784145346e-05 -0.0006665663141310359 -0.0008697906606594155
0.19 0.0027821324636521836 0.001761101681424926 -1.7301061695547674e-06 1.220167834321155e-05 3.0801813989971135e-05 -1.3297142364810418e-06 -0.0007298392129650441 -0.000855240091867043
0.191 0.0028921240121332634 0.0016941761560253313 2.0011112113676003e-06 -2.1362287192713184e-05 3.090528634966927e-05 -4.021073698804463e-06 -0.0007739348115967659 -0.0008267735756817941
0.192 0.003042252596164525 0.0016291191518119968 1.096847768903279e-05 -3.0853642931539656e-05 -8.637715708949187e-06 -2.0169248883414576e-05 -0.0008313731695475214 -0.0008101088531361804
0.193 0.003129015956048286 0.0016089857881799454 1.6268193109243125e-05 -2.353262727820871e-05 2.3477798693475817e-05 3.431906489297685e-06 -0.0008738866961937036 -0.0007806161747339724
0.194 0.0032406577335175736 0.001484464045187121 5.102564793141662e-06 -1.5095886949349683e-05 4.190219622106241e-06 -2.3244613582097145e-05 -0.000917827023736543 -0.0007168835414806028
0.195 0.003387876037106466 0.0014082452743789564 -1.1569906339932252e-06 -2.148801371880698e-05 7.946712760971004e-06 -1.8513873290619097e-05 -0.0009623590542355849 -0.000694194933776949
0.196 0.003448246760959949 0.0013200178202426604 9.475805603017026e-06 -9.112676388640767e-06 -1.2997347307306142e-05 -1.0175639427364128e-06 -0.0009934148849661806 -0.0006410944469436654
0.197 0.0035931772241344947 0.0012728243412699744 1.798705295127074e-05 -4.092297284368749e-06 1.533778572077767e-05 1.8345259825698712e-07 -0.0010205992838815624 -0.000595568954333125
0.198 0.0036687513709836505 0.001176720910990626 -3.2873827198611527e-06 -2.170277904515422e-05 2.4977996079673104e-05 -1.8719680983634562e-05 -0.0010565275711497272 -0.0005523759536998487
0.199 0.003766141676478068 0.0010572780352375891 -3.1951884082895525e-06 -1.295052737215964e-05 3.462986757278895e-05 -6.0568961094120194e-06 -0.001094424316296171 -0.0005343406994339925
0.2 0.0038519629626663264 0.0009192559681257365 1.5640398276429864e-05 -1.750195682624789e-05 2.3916407839381613e-05 -9.076036217236003e-06 -0.0011451309708042838 -0.000473231552861176
0.201 0.003938786776255295 0.0008097832093030576 -8.005489657655111e-06 -2.7669104776860825e-05 -1.1911498103257967e-05 -6.264868702055542e-06 -0.001155496663550894 -0.0003827733277069873
0.202 0.003996858288743361 0.0007120613530257699 5.164494143855151e-06 -1.3216414830421809e-05 1.4102965180991364e-05 -3.65605624427744e-05 -0.0011786254767019333 -0.0003424920661125797
0.203 0.004091580188405588 0.0005611908011983963 1.0920573048790115e-05 -2.3582751119463023e-05 2.6299384972610048e-05 -3.3079057042720665e-05 -0.0011794769486507684 -0.0003096706501026746
0.204 0.004125922440362419 0.0004343451602491184 -5.149575333575799e-06 -1.6305229075288805e-05 -2.474456470777546e-06 -1.5568142952612368e-05 -0.001164789446840067 -0.00023053549251963592
0.205 0.004191021075903386 0.0002953080145171342 2.164812236503405e-05 1.671342463410033e-05 5.497861284885799e-06 -1.665369881867703e-05 -0.001196305879161919 -0.00020841902166536942
0.206 0.00423134096157343 0.00016488649084442228 2.396636866431905e-05 -2.1094663944302544e-05 2.5011023882869706e-05 -1.2259435267423157e-05 -0.0012312712535420122 -0.0001533970405360921
0.207 0.004242907994694584 4.393421072041445e-05 1.382718797453134e-07 -3.2326916554783922e-06 6.437602721382806e-06 -4.703707532588882e-07 -0.0012193278085856109 -6.390226266602843e-05
0.208 0.004317126563433566 -0.00013352508530238184 5.6286783527925105e-06 9.20699330663822e-06 2.473602801880388e-05 -3.3331295855748954e-05 -0.0012256105266889587 -4.1293441933430124e-05
0.209 0.004312781379805294 -0.00028655060535514654 3.399190786220193e-05 -3.399886096443508e-05 7.4223592719696245e-06 -2.7640311290241213e-05 -0.0012032059379260046 1.4930386352901661e-05
0.21 0.004319682603947832 -0.00044512336735571 -1.9658526920128763e-05 -4.1859432158516045e-05 1.9256455813142845e-05 -1.4439893146880681e-05 -0.0012021211354125482 0.00010219957114128111
0.211 0.0043267310107552685 -0.0006029694544753465 4.623532478168862e-06 -1.1976329481021112e-05 2.6712386318419763e-05 -4.8713875350358854e-05 -0.0011964356746122682 0.00012261742783367175
0.212 0.004274822912962677 -0.0007571853370206477 2.866206937439318e-06 -2.6353761160170588e-05 1.045182813563866e-05 -1.1678191618894648e-05 -0.001196612175727773 0.00020595155371375376
0.213 0.004301255990767102 -0.0009224621236970611 1.0094465919019465e-06 -4.349388730679389e-06 2.7719499408504182e-05 -1.487048716101987e-05 -0.0012095563023442814 0.0002357986375638042
0.214 0.004254568103910575 -0.0010526221181462372 2.8553692028071203e-05 -2.497727426967762e-05 2.4163698187786962e-05 -1.0275356656599637e-05 -0.0011697235330979145 0.00030762142640692594
0.215 0.004236072247300514 -0.001222100653284304 7.566539230152508e-06 -2.0841934022678695e-05 8.032150669609383e-06 -1.2077921972788943e-05 -0.0011273135347604124 0.00031859916073705683
0.216 0.00423329461366606 -0.0013541337941319015 4.440090216963441e-06 -1.122484904987316e-06 -1.6244026786728961e-06 -1.685801986225691e-05 -0.0011218131397961123 0.00037110604341771057
0.217 0.004129598399684996 -0.0014950848166166459 2.4565924537652053e-05 6.805745234709357e-06 1.6904263043789146e-05 -1.0359342036730614e-05 -0.0010825958371401703 0.00042542304431393996
0.218 0.004061527386949663 -0.0016459583155656577 1.618844848080772e-05 -6.1203213774393175e-06 2.621241010087057e-05 -1.429761406599143e-05 -0.0010527303281524468 0.00048183867599246985
0.219 0.0040310042952445635 -0.00175011693293518 -8.035835184015815e-06 -1.2485620051425589e-05 -1.9483886311386242e-05 -1.4744737397223776e-05 -0.0010340503707366078 0.0005192607631248861
0.22 0.003921400152910224 -0.0018843785959515612 -1.2081181897588185e-05 -1.94991969031877e-05 -1.0545937314234061e-05 -3.4988444432225205e-05 -0.000978858029895245 0.0005287147184617181
0.221 0.003852438699625912 -0.0020067046514215792 1.3548245756833711e-05 -2.5011697008934576e-05 -1.1814251819128976e-06 -2.7272418655342696e-05 -0.0009644377304969813 0.000566327323824645
0.222 0.003776235382248599 -0.002146187929006483 2.9081409929679297e-06 -6.269977804737162e-06 8.514211993608467e-06 -6.2527019817923576e-06 -0.0009041614529604811 0.0006073565593385747
0.223 0.0036838465268563604 -0.002249439720486724 2.134393630299633e-05 -2.1128988172403752e-07 -2.453026892634129e-06 3.263504999671841e-07 -0.0008821076120959741 0.0006071416457531649
0.224 0.0035746300310104686 -0.0023474651413499283 -3.678149030704879e-06 5.915844150616306e-06 -5.15663193657725e-06 -1.914557611079962e-05 -0.0008633709084102354 0.0006434269707324471
0.225 0.003478374374380716 -0.0024258777825354226 3.6438897469898006e-06 -1.8286490343244673e-05 9.236533477897323e-06 -2.569282561664811e-05 -0.0008078134282332671 0.0006503333204414082
0.226 0.003375183453626006 -0.0025390565165935366 6.117728169680015e-06 -2.0875094177668563e-06 1.586935788923733e-05 -2.0051336309047886e-05 -0.0007551389324566203 0.0006754686340181288
0.227 0.003224651626102046 -0.0026227577525886714 1.370596474287368e-05 -1.7137032313508035e-05 -4.7014654073250484e-07 -9.858020628418966e-06 -0.0007625938989021027 0.0006804542836129143
0.228 0.0031168926146001846 -0.002672569216795897 -2.2855637007446642e-05 -1.7962411242293083e-05 5.577202253649072e-06 -2.733649922135785e-05 -0.0007152897554798127 0.0007156799919518167
0.229 0.0030006720914236697 -0.0027274860400070913 -1.1878981561828157e-05 -9.951099276430823e-06 -1.9946555571066743e-05 -2.37450657900595e-05 -0.0006642730519183538 0.0007038319026462581
0.23 0.0028688212221969225 -0.0028078634032508037 -9.505483461148551e-06 -1.3326196326530229e-05 4.997454573533276e-05 -2.285705824948359e-05 -0.0006304114042255522 0.0007465278316947519
0.231 0.0027470046798111227 -0.002845188843953634 -4.243454492160635e-06 -3.287484904239306e-06 -3.194668991666915e-06 -3.489788557519321e-05 -0.0006291638699578124 0.0007477353405881057
0.232 0.002615322308270371 -0.0029101909119927036 -1.193184649206418e-05 -4.6288069528812805e-06 4.414124637037376e-06 -2.8941440988554345e-05 -0.000569117240496576 0.0007408510262516676
0.233 0.0025149353566814156 -0.002953977996083593 -1.336245016648571e-05 1.4487088883133039e-05 -2.752794123963471e-06 5.81721551102683e-06 -0.0005400642353426234 0.0007355025981539063
0.234 0.0023557653138588366 -0.002937683680143041 -1.5812482876092786e-06 -2.0668046592455835e-05 1.382082284440792e-05 7.104784491122537e-06 -0.0005090132218575864 0.0007347016900076425
0.235 0.0022373070260996598 -0.002936179251728788 -1.6842478513378524e-05 -4.5252658576898076e-07 8.680631516746737e-06 3.4122154016256316e-06 -0.00047370702498610284 0.0007178179276192715
