!Created with skrf (http://scikit-rf.org).
# GHz S RI R 50.0 
!freq ReS11 ImS11 ReS21 ImS21 ReS12 ImS12 ReS22 ImS22
0.13 0.0018944558315957117 0.0012786724091374743 3.399854776516116e-05 -8.316627966622205e-06 6.290142196943063e-06 4.929608968820086e-06 8.050586331954396e-05 -0.00044210415487706475
0.14241875 0.0016714972211671537 0.0004168569769280271 3.0841243811456703e-06 -2.2489569557769973e-05 -3.8888899177341505e-06 -2.0175458194397624e-05 6.898559864778062e-06 -0.0002849757273030131
0.1548375 0.001012664452391421 0.00031224680439420876 1.5914493244254824e-05 2.1610252104430652e-05 -6.32327770516552e-07 -1.907697943878999e-05 0.00012367875256908456 -0.0002829632667757915
0.16725625 0.0007639945023140291 0.0010061267066090495 2.6730224549483306e-05 1.4229726637980183e-06 1.93233245567513e-05 7.499267650671074e-06 0.00019401059322510887 -0.0005937954929705211
0.179675 0.0014816763489175079 0.0017944240467383191 -7.199133093206479e-06 -1.6483065406466604e-05 2.2362959289661667e-05 -2.487236569704812e-05 -0.0002035775822804929 -0.0009094721442609859
0.19209375 0.0029351265213858205 0.0017625807696038354 -7.597231581343893e-07 -1.4944727462185428e-05 1.5292693765907028e-06 3.074406281990247e-05 -0.0008055914571912635 -0.0008211185000482983
0.2045125 0.004124616790746474 0.0004703145978587967 9.061307458669823e-06 -1.6052813234052875e-05 -8.455368329011076e-07 -5.4630427199412276e-05 -0.0012035813193692214 -0.00023838373834702704
0.21693125 0.004155612415218396 -0.0013626236725021855 9.932126489676222e-06 -3.1235863690673464e-06 9.663569620337402e-06 -1.541695538908766e-05 -0.0010799315744066545 0.0004086443832231103
0.22935 0.0029784301762425056 -0.0027225118479370447 -2.369451363247524e-05 -1.5608823623506626e-05 8.67432853982913e-06 -9.061321807077944e-06 -0.0006657972634670215 0.000729980156849419
0.24176875 0.0014635736393639831 -0.0027650756538851206 1.0272740482245446e-05 7.483451566303947e-07 2.063293920370181e-05 -2.067095484239529e-05 -0.000333838533089225 0.0006746370150881154
0.2541875 0.0006915864321939225 -0.0019534030678964695 -1.471809365692854e-05 -3.102570706502099e-05 2.2005457643119833e-06 -1.4022186585284342e-06 -0.00025458035912444336 0.0006281348931501605
0.26660625 0.0010586281885299883 -0.0010662337147943472 -5.159034120670745e-06 -9.481688748584773e-07 -5.776611691865294e-06 -2.010404869344571e-05 -0.00026370714603386346 0.0008013700641502445
0.279025 0.0020448886370287114 -0.0010939121374296593 1.296215849137222e-05 -2.0375623560297392e-05 2.0994891568022727e-05 -2.1418527463958816e-05 7.263110286352458e-06 0.0010444269362950155
0.29144375 0.0025638195024041068 -0.002076863732132298 -1.0175213574554297e-05 -9.885249324372906e-06 3.806899832481268e-05 -9.243590307562195e-06 0.0005470400362831148 0.000992624139797055
0.3038625 0.0021702112139757998 -0.0032134519564725977 5.064249306547002e-06 5.87573029359318e-06 1.6071135407585426e-06 -2.94735544136463e-05 0.0008679391688730786 0.0006294653051191939
0.31628125 0.0011473726761444987 -0.0037319468754688848 -8.681571549063203e-06 -3.968375474741369e-07 2.1937644980273868e-05 -3.453644126868847e-05 0.0008333065745445398 0.0002631309823001435
0.3287 0.0002528115274372953 -0.0034464982723461258 7.543331985157972e-06 -3.529920426934025e-05 5.662678789399838e-07 -3.8809668661372766e-05 0.0007445548233143099 0.00016810874139326347
0.34111875 0.0001427104561449793 -0.0029500795571889365 3.576987208725114e-05 -1.3468395104821555e-05 8.211988574691591e-06 6.503820861964879e-06 0.0008965199518593683 0.00016443005824237324
0.3535375 0.00048794654297442845 -0.0030471502153279527 7.793310471612872e-06 -5.522519462097977e-06 1.2346273199614966e-05 1.8012567033686813e-05 0.0011640482351605059 -0.00016082540523855893
0.36595625 0.0005087412401976893 -0.003790364083719447 1.4676694573636163e-05 -2.0052299586566137e-05 8.223225057509301e-06 -2.4224839850422982e-05 0.0010847676458924428 -0.0007980600384414156
0.378375 -0.00021511743624701949 -0.004699077249256916 2.2432840242834177e-05 -1.4519181506001453e-05 -1.7265051480253247e-06 5.803873580608615e-06 0.0004819355924899803 -0.001177320340226376
0.39079375 -0.0014675696421054803 -0.004922374174249908 -2.6676895392934073e-05 -3.731884242317979e-05 5.647007514867657e-06 -2.2734731441921987e-05 -0.00018895117570925506 -0.0008572810106831967
0.4032125 -0.002463669268350045 -0.004419672349985997 2.7936155185364433e-06 -2.8868392486676198e-05 1.1022944781257433e-05 -3.353572364464525e-05 -0.000158471146564425 -0.00015211776169664218
0.41563125 -0.0027702914991965606 -0.0038570439918527567 1.0127271344427397e-05 -9.885756104195008e-06 5.323663132403147e-05 -3.3900168864604575e-05 0.0006852497072568466 -4.8633316260136284e-05
0.42805 -0.00286142758728339 -0.0039288333556291525 1.4584624907356164e-05 -2.3276667587219377e-05 8.186197452195242e-06 -3.420066962596093e-05 0.0012567671291939945 -0.0010864880409688594
0.44046875 -0.003697012405484651 -0.004547652198335285 4.8086921067195665e-06 -1.3497387304124571e-05 -6.289779716707333e-06 -1.2461779049223737e-05 0.0004922012992264485 -0.0025414054618937087
0.4528875 -0.005670116732470368 -0.004614658277917763 2.2514392497885903e-05 -2.4394274999950645e-05 1.7688270845011906e-05 7.780257608620039e-07 -0.0015554960886211928 -0.002844485650546838
0.46530625 -0.007932029244300726 -0.0029447255015492124 -2.5618420625161926e-05 -1.703191749365587e-05 2.9723881194575082e-05 -3.156937236810081e-05 -0.0031965741637158987 -0.001257150495927602
0.477725 -0.00876893549345893 0.000306217975055082 6.6424773978388e-06 -2.3713264691810514e-05 1.1111863106192393e-05 -5.248832245582371e-05 -0.002935945179243562 0.0010699569388747357
0.49014375 -0.0072031171494246005 0.003513194973032008 -1.8097086313278552e-05 -1.2915973853092198e-05 2.132987797855299e-05 9.304701819025407e-08 -0.0011079681990958487 0.002040291842037984
0.5025625 -0.003924060197435074 0.004559122140134857 8.13670128545907e-06 -9.425549726813177e-06 1.812295591042768e-05 -1.3275956097388356e-05 0.00040210722154476785 0.000945512471920581
0.51498125 -0.0012274444908914664 0.002778268299125777 1.578632579169264e-05 -1.2242026876761427e-05 2.006340643972142e-05 -8.688058321544065e-06 -0.00028369036648967744 -0.0006823876304990236
0.5274 -0.0014156058260826028 -0.00034169477115004207 8.002230166838877e-06 -7.77418967873463e-06 9.002256707397562e-06 -3.201984416606598e-05 -0.002466603917108588 -0.00038584638185089906
0.53981875 -0.004513889514989425 -0.0018718778837105358 -1.7015254441412437e-05 5.851037539079459e-06 -1.3472941829218887e-05 3.123054275190806e-08 -0.003433514764525806 0.002460421885349
0.5522375 -0.00830361262813355 9.171432141331286e-05 4.99609040410571e-06 -1.050209152940374e-06 -1.6692049302995496e-05 -7.764242530026399e-06 -0.0010918585290661405 0.005473539603245628
0.56465625 -0.009420355912526846 0.005035285139865483 -3.415506497402622e-07 -3.5675331854408194e-06 1.1589651309535388e-05 -3.9833043217324084e-05 0.0033953270894400956 0.0053951133327318785
0.577075 -0.006340090192054556 0.009768713951308435 -1.0756940019013702e-05 -2.1251182299154153e-05 1.5082566398586099e-05 1.33924274006218e-06 0.006315219101689237 0.0015063061029325956
0.58949375 -0.0005267744638062233 0.010752656868948733 3.780383317620096e-06 -3.906431864752475e-06 -1.3235895090941292e-06 -4.265453216321668e-05 0.00494541516968721 -0.0032156662154927173
0.6019125 0.0037231049748065897 0.007089355990251448 7.545716137876681e-06 -1.0649189847894845e-05 2.2792484338763728e-05 -1.0660867200886534e-06 0.000519788867537595 -0.00467255341999515
0.61433125 0.003312509530588753 0.0018824843052377375 2.9732789531212436e-08 -3.1150863286106546e-05 2.0453399686552825e-05 -1.3709933213498445e-05 -0.00265919465397404 -0.001829215891389665
0.62675 -0.0014496011287399183 -0.0003396672403842619 1.671625854105776e-05 -4.080629558300036e-06 5.948377368291121e-06 1.0293165705326689e-05 -0.0015638387066029707 0.0019349533136058129
0.63916875 -0.006272621056178426 0.0031316862896293156 5.461045624515246e-06 -5.818760940151057e-06 -9.40319063386249e-06 -8.035519412658868e-06 0.0023979261250048054 0.002380821535391229
0.6515875 -0.00631042904480999 0.010424888967672134 1.7940819284087683e-05 1.4585999105111598e-05 1.0580975503836948e-05 1.5980191665020175e-05 0.004650260788633941 -0.0014692720558403072
0.66400625 0.0004311901235924518 0.016048361842533592 3.5177625590632044e-05 -2.272886009382833e-05 1.8663472644281402e-06 -2.2801241831317362e-07 0.0019488995228020543 -0.005810162501153431
0.676425 0.010321859693834983 0.01491686889598451 -5.411748491232089e-06 9.545483352039233e-06 6.947642063744021e-06 -3.298452720548922e-05 -0.003769654613505885 -0.005687741080148131
0.68884375 0.016802648244595656 0.006422346106324154 1.2170445657062786e-05 -1.2254994373889733e-06 -1.859378394552223e-05 -1.787818951544434e-06 -0.006973548502543492 -0.0004112516753625486
0.7012625 0.015103281882586164 -0.004278052257512388 -2.2245185170593806e-07 -1.1693433159655484e-05 -4.078437551776052e-06 4.822976754307478e-06 -0.004096208992213281 0.0054127834332938825
0.71368125 0.006126958752318292 -0.009971563717485919 3.829812474828055e-06 2.088132355011639e-06 4.068129889736335e-06 -1.5071439915726927e-05 0.002637000358813426 0.006004140070182917
0.7261 -0.0036021643095515456 -0.0065415329686097185 3.877420550160912e-06 -2.5657177533506334e-05 5.168326496550156e-06 -2.503597455486027e-05 0.006708135105088103 0.0003880705921580506
0.73851875 -0.00668392440140024 0.0035656045257281216 -2.9320010565540147e-06 -1.8684527742684124e-06 1.740699844417888e-05 -2.6422219154770478e-05 0.0040208594677420455 -0.006265668997437148
0.7509375 0.000457388764778649 0.012487620900640687 2.36258690680643e-06 -3.5418695275930997e-06 -7.95969322919291e-06 -1.9728033627296295e-05 -0.0034493406407968344 -0.0074341532271917825
0.76335625 0.013079657397003341 0.012236214900216503 8.321654119650339e-06 1.1756152400473147e-05 -9.347961189051221e-07 -1.7405548933655093e-05 -0.0085597279672252 -0.0016130260323438503
0.775775 0.02197364207533688 0.0013425558108064286 -2.5618250326955617e-05 -3.0069761334639463e-05 2.3690158918480655e-05 -2.5959669216018098e-05 -0.0063900545849686664 0.005829810725315247
0.78819375 0.01979446407051564 -0.01378294419096596 1.811159443273553e-05 -9.168516584302991e-06 1.090530143881232e-05 -1.8786350668325384e-05 0.0009182766553263432 0.007906217340453173
0.8006125 0.006778634233459573 -0.022849957699391958 -4.993566475829568e-07 -1.418876257591154e-05 8.089381315652597e-06 -1.997094206794956e-05 0.006145499907219866 0.002931767410560034
0.81303125 -0.008859907534814498 -0.019472947579731042 2.0245495835967225e-05 -8.544063217213058e-06 1.8656733206809209e-06 -1.2615611143457433e-06 0.0042922208091341705 -0.0038034397177499255
0.82545 -0.016570153880369597 -0.00592379903002298 2.2703155295380014e-06 -1.581753235336941e-05 1.1738559802875455e-06 -1.0595559805019866e-06 -0.0025131715271872555 -0.005016637163992257
0.83786875 -0.01125107529658574 0.008299271305295909 -1.0283105748240591e-05 -2.0053158255435313e-07 1.293521106187475e-05 -3.343141440495731e-05 -0.006838612887812139 0.0009117065271244546
0.8502875 0.003112766440162323 0.012803978047961356 1.3647098496666298e-05 -1.2843170672039732e-05 -5.828917988750979e-06 -1.621055213619466e-05 -0.0033570437667759345 0.008234528314608195
0.86270625 0.01569521929763472 0.003863853231474517 -4.623519712480024e-06 -7.881090973094747e-06 -8.930854145832664e-07 -4.0944501617217715e-06 0.005692121880132351 0.009297945014090987
0.875125 0.01659244220187483 -0.01259310108331344 1.8585581902327026e-05 -7.944875861698229e-06 3.4462107311344506e-06 -1.089169719645403e-06 0.012163803020647398 0.0017995626028527113
0.88754375 0.0036356549695063006 -0.024777217676703957 -1.3749029847449695e-06 -3.364854626722571e-05 3.071834133352936e-05 -1.5332600536585326e-05 0.009822597750596457 -0.008395083562140292
0.8999625 -0.015275729418507805 -0.02307910961362008 1.5752838452302773e-05 -2.508785231506444e-05 1.2192998047430289e-05 -4.599087092587882e-06 0.00010431207334784062 -0.012540860283145851
0.91238125 -0.027304292279960153 -0.007460005942997986 -9.34591970504852e-08 -1.7856370084589264e-06 2.0485003213892847e-05 -1.235953463019025e-05 -0.008516840761577006 -0.0073385795039241815
0.9248 -0.024075093580005202 0.012138963162370554 1.2133790611216018e-06 -4.091177281817363e-06 1.1613729776082814e-05 -1.0071359526132236e-05 -0.00901960953492444 0.0018517162794116917
0.93721875 -0.007681112654621152 0.022796198640587247 2.0723272496022825e-05 5.725206331263613e-06 9.556235949033677e-06 -1.9630538205884933e-05 -0.002259061861771789 0.006407145036682846
0.9496375 0.010636739060652883 0.01762620241841241 6.166885591896561e-06 -1.9652259127466366e-05 1.632357839109371e-05 -2.4009555959868823e-05 0.004042145686437858 0.002895518032968777
0.96205625 0.01799506058929548 0.0006092475779457396 -1.6474427407077092e-05 -2.4274120501635903e-05 3.1882488309374575e-05 -1.9676165455127053e-05 0.003260146531362374 -0.003968636346241348
0.974475 0.009165049724605431 -0.015619985078364623 -1.750484573042294e-06 -2.0569260625593666e-06 2.089649222872393e-05 -3.1615627266316635e-05 -0.003866054401368774 -0.006023082463187755
0.98689375 -0.009414772078796058 -0.01870076494630153 2.0521908866331552e-05 -6.0009501769436535e-06 1.2070160204809398e-05 -1.0123159890797669e-05 -0.009578580971636302 0.00014367917547957647
0.9993125 -0.024141331854051956 -0.005691478078200272 -1.7492929832754166e-05 6.181152900087827e-06 1.0958151152685882e-05 2.089711962033568e-05 -0.006958648170000869 0.00929890889036999
1.01173125 -0.02373743108834022 0.014995310748309794 -5.855035701007906e-06 -8.098174435239581e-06 7.1373350744265575e-06 -6.161801431851823e-06 0.003034560495372976 0.012708538998660333
1.02415 -0.00743959642784069 0.028880474720844856 1.2370654779466585e-05 1.2307561459349817e-05 -2.25442259028576e-06 -2.3396354428575194e-05 0.012269900075916544 0.006235502796598373
1.03656875 0.014134649019586866 0.02593782209161048 1.2363487612995539e-05 -1.1533867261906522e-05 3.5061710705370594e-05 -2.8662567156358655e-05 0.012584145116037742 -0.005246983322416048
1.0489875 0.02626741156546898 0.007912918048402062 3.580992359922821e-05 -3.061624523188474e-05 8.196336650411626e-06 -1.6960247999013022e-05 0.0036681397416883275 -0.012251426652244995
1.06140625 0.020606507441348645 -0.012776964924222622 2.6807345570473058e-05 -2.9868670765603413e-05 -1.433502497608898e-05 -1.1476179041408842e-05 -0.006724180603361499 -0.00918769057082342
1.073825 0.0011693735592738124 -0.021553766311017943 1.5179737127177892e-05 -1.5543165967512262e-05 1.5340418934662872e-05 -1.043956284057489e-05 -0.009770387663832356 0.0004319235438709953
1.08624375 -0.017944547574897458 -0.011817509953345151 8.925129858652018e-06 -5.055645819360138e-05 1.6248578599998518e-05 -1.3570117239448957e-05 -0.003704936388384238 0.007395564280086146
1.0986625 -0.022545641550963634 0.00973374941889169 -2.7773096568094063e-05 -1.9976524946096496e-05 4.483894859178142e-06 -3.347638843092089e-05 0.0047784980856137044 0.005741537253619276
1.11108125 -0.008550639750032944 0.02787270371717809 1.6670261007743225e-05 1.301186128610118e-06 1.239556609125778e-05 -5.130752778114583e-05 0.007113191575588195 -0.002218279174263295
1.1235 0.015487337539151816 0.02952935213777779 -9.66482821882843e-06 -4.103251858545062e-05 5.394802721021544e-06 -1.0676819134848947e-05 0.0011580405163474621 -0.007937321524881179
1.13591875 0.03309551241310772 0.012304515077818726 9.633357205734988e-06 -2.1169062547734336e-05 2.1793583330398744e-05 -1.3456502266017044e-05 -0.006991627667888741 -0.005204580058721531
1.1483375 0.03220344212223575 -0.012334671094371214 -2.4082715916002852e-05 -1.6248775194667884e-05 2.246190689444848e-05 -1.7974772791218602e-05 -0.008668425573650058 0.0036280254378726344
1.16075625 0.013634507677429018 -0.027933129807339484 -4.3968634259274824e-06 -3.217619287061807e-05 2.9633646408423745e-05 -1.6674019814683873e-05 -0.0014694650374718489 0.009981332137585055
1.173175 -0.009605366324253881 -0.023980982826380358 1.6376730086650394e-05 -1.1571417449280279e-05 -5.069230638343564e-06 -1.6313807980521134e-05 0.008386243298215993 0.00699267752690992
1.18559375 -0.020845591773523034 -0.003866442158538952 7.229646289438108e-06 -4.517241722871088e-06 1.349168316421475e-05 -1.5175405644648769e-05 0.011413468117765311 -0.0035179714442438942
1.1980125 -0.01216572933208115 0.01789397840308035 -4.416774497337995e-05 -1.4979497572435548e-05 -9.515501492196094e-06 -3.931594927238527e-05 0.004197529522680224 -0.0126799762282904
1.21043125 0.011429978133663 0.02435542089687074 8.00736576002716e-06 -8.135030940004935e-06 9.358991106931943e-06 -2.482003676515159e-05 -0.008165867689086483 -0.011826056076445013
1.22285 0.032661090726959094 0.009551254738173967 -9.735227583713498e-06 -1.1630949667379939e-05 1.6297734636486616e-05 -1.16183566121678e-05 -0.014877079200274592 -0.0011402397345558909
1.23526875 0.03563365510995256 -0.01752729380606526 1.814987950318644e-05 6.451938205439493e-06 1.0284582681686123e-05 -7.977203155925776e-06 -0.010284126476199064 0.01041395226191537
1.2476875 0.01705469815543392 -0.03870247437377726 -4.343513703373933e-07 -4.623215514809837e-06 5.423880823172864e-06 -1.992132205965973e-05 0.0012357973769267715 0.013349196975001417
1.26010625 -0.011314972946975345 -0.039348603168027366 6.884206384313913e-06 -2.01492488121442e-05 2.6913653513605717e-06 -3.2470039397563844e-05 0.009371361394417101 0.00601928490201595
1.272525 -0.030528979260542464 -0.018874639536945764 -9.849997686132514e-06 -4.08787246486121e-06 8.166319331369616e-06 -2.6940581915060056e-05 0.0073588138306744655 -0.003593171000368358
1.28494375 -0.02745880610160808 0.008407283281023626 2.020597966510841e-05 -9.409208526332973e-06 -1.3816960925668544e-05 -2.6388504756846994e-06 -0.001430305868435022 -0.005715060180677875
1.2973625 -0.004432161880862289 0.022776623679857097 -2.5613569222262056e-06 -1.8037582055476036e-05 -4.7596186432497164e-06 -1.544739606157995e-05 -0.006798028579416117 0.0017156294752948085
1.30978125 0.02143291874669136 0.01316478092386024 2.72132743098988e-05 -2.1405123389344978e-05 6.539997255638181e-06 -2.6530817892302816e-05 -0.0016416833795253878 0.01066135378751193
1.3222 0.030360154399253936 -0.014496933841689832 1.8334160682527709e-06 -9.854727320269137e-06 2.0716349767745405e-06 -3.086536631498784e-05 0.010494357048210987 0.010666036227098939
1.33461875 0.01381162183446015 -0.04062402116253914 1.6884198466351185e-05 -3.400950403585517e-05 1.4660527135487108e-05 -1.8662126277204732e-05 0.018322529991821455 -0.0010146225722153495
1.3470375 -0.01860592310101214 -0.04585314507826599 -1.2511970280422857e-05 -1.2225251139385915e-05 -2.0008405375140105e-05 -2.888823181694305e-05 0.013186544706576098 -0.015592736414179237
1.35945625 -0.04519717998517354 -0.02470789970552782 1.3852183533208998e-06 -2.8879707338838908e-05 3.3438947803425765e-06 -1.394088477484179e-05 -0.0022092226952069656 -0.020760622829396433
1.371875 -0.04752417695919399 0.009399266239929755 8.60085608520373e-07 -1.448355938292347e-05 1.9230468353509276e-05 -3.1465477965983074e-05 -0.015668126745295028 -0.011756614275201603
1.38429375 -0.023875279119748433 0.03330352462481328 -1.9104628277791228e-05 -8.011235511535251e-06 6.08490807379624e-06 -2.9364761843906478e-05 -0.01636963327242387 0.0035822532072719315
1.3967125 0.00884384420682413 0.030473278242066207 2.3795069165784413e-06 -3.0990743129752395e-05 1.9903646918341813e-06 -3.947145414719447e-05 -0.0051244067284206656 0.011952085660617872
1.40913125 0.026660449237166668 0.0033011704891131024 -3.794533959928475e-06 -1.42663868054668e-05 4.482963662016062e-07 -5.013796751533423e-06 0.00646132566289939 0.006981224101565299
1.42155 0.015746471975388455 -0.027929455481962667 9.99813938829174e-06 -1.6154351802594714e-05 -4.423109728971867e-06 -2.3892235428471288e-05 0.007037952539745737 -0.00474855531443943
