!Created with skrf (http://scikit-rf.org).
# GHz S RI R 50.0 
!freq ReS11 ImS11 ReS21 ImS21 ReS12 ImS12 ReS22 ImS22
0.13 -0.056566584239463695 -0.17474240066553018 -5.4832700255383814e-06 -4.098046720830311e-06 7.773699154971583e-06 1.1176430372542569e-05 -0.035193035141754196 0.03958230532207219
0.14241875 -0.19260577214888133 -0.059748097490276826 2.748698770763854e-05 -1.378117093001744e-06 -1.1268973700088761e-05 -6.542121259048113e-05 0.021847451794971173 0.054308723457192065
0.1548375 -0.1725298296427782 0.1332109764433136 5.535692225412628e-06 -9.562487953757013e-06 2.4468676674340497e-06 -2.028243037369922e-05 0.06349244181057971 0.005343379440251314
0.16725625 0.007632294491336035 0.2321743899284505 7.561309457981367e-06 5.754229346368052e-06 1.6356248862760073e-06 -2.1321453114797603e-05 0.034676858413318155 -0.05923844473611007
0.179675 0.2024078160640484 0.14228345970538994 8.1555629220396e-06 -3.4977301795828244e-05 -7.467569076339975e-07 -1.355906645075023e-05 -0.038863775010358086 -0.061187861485344594
0.19209375 0.2519808271084104 -0.08194001425417866 2.3846642756970368e-05 -8.212421519704353e-06 4.993740287929905e-06 -2.7810608370822177e-05 -0.0759164792460065 0.005797722917868932
0.2045125 0.08569725719960374 -0.2670908670495965 -5.450389045912753e-06 -7.879622827846746e-06 1.8132595311863483e-05 -1.0489885159813457e-05 -0.03193790774262052 0.07439342413785588
0.21693125 -0.17320767641699822 -0.2330782302956331 -1.2797709857232062e-05 8.942860989778047e-06 1.367346868985595e-05 -3.443642681181923e-05 0.05542307352839287 0.06552271077602394
0.22935 -0.30222264222176487 0.0022253381047726522 1.6899872352658543e-05 1.1839428817938933e-05 2.1543597789976168e-05 -2.6693314759708647e-05 0.08743898341494667 -0.022844753788359602
0.24176875 -0.18665932805182792 0.25891370361396593 9.510871224952118e-06 -1.984585818197225e-05 2.3404489500892428e-05 -6.56394399257767e-06 0.018581442970762134 -0.09184340751383548
0.2541875 0.11617536934472385 0.32580841583419784 1.0857337229580955e-05 -1.6445027339424703e-05 -6.016766921135595e-06 3.253041689473256e-06 -0.0764736809714978 -0.06081288923231448
0.26660625 0.34737341825533713 0.0972060716380937 -6.532325787067659e-06 -3.054779396660096e-05 7.91283795100263e-06 -1.218197436064771e-05 -0.09393000116064469 0.04209687198313651
0.279025 0.2930883245777837 -0.2284873331074286 -4.403315069179467e-06 4.132051391513175e-06 2.9848466974828106e-05 -1.5241249983402776e-05 -0.005917498931476494 0.10825207965417134
0.29144375 -0.007298459490260785 -0.3850321517629375 -1.4994663846595598e-06 -2.5815591958909438e-05 -2.8266153412221846e-06 -1.80375149944968e-05 0.0976112401819351 0.056220641963137315
0.3038625 -0.3254134423634421 -0.22858509932916643 -1.3091111449904022e-06 -1.9890062508515265e-05 7.45688430290255e-07 -2.3313051180093883e-05 0.0961266447753568 -0.06298123033964288
0.31628125 -0.3843004331429534 0.13168083403766764 -2.174162694933621e-05 -1.1111541095833627e-05 -1.7157507285934801e-06 -3.8632294457157305e-05 -0.01216205888246975 -0.11640126707295101
0.3287 -0.1253749679794389 0.3995373875700495 1.769476683402816e-05 -2.32533436315913e-05 2.482201901753192e-06 2.2664376741630463e-06 -0.11309919649833486 -0.04376896354031191
0.34111875 0.26250418010232074 0.3532910599087928 1.1098974367781733e-05 -3.931295422401731e-05 9.14212250619907e-06 -5.814540264272237e-06 -0.09407638510524867 0.08533598681521457
0.3535375 0.46037670486238164 -0.015343654558909946 5.9728565551903055e-06 -2.066488986296522e-05 -1.3914189744984308e-05 -3.733930869142258e-05 0.03678822270142905 0.12737755876112553
0.36595625 0.255997849164416 -0.3893896336341665 1.8890622170242698e-05 6.966557982901811e-06 1.348992948400823e-05 1.1082523420744514e-06 0.13371733386699303 0.02405766352837679
0.378375 -0.1559875999292853 -0.4496323691507857 -1.4324521797657522e-05 -1.359346362111192e-05 4.442573343687877e-06 -1.663433324484773e-05 0.08567255761566625 -0.10959425579381102
0.39079375 -0.46465225581566666 -0.1625482205219281 1.4385593719488414e-05 -3.6448634074159075e-06 3.412561376435221e-05 -7.123931152768317e-06 -0.05747234894123719 -0.1298227411376536
0.4032125 -0.42853139343283425 0.2955550202460947 -4.71906118907647e-06 -3.925198697840914e-05 -4.689804908843748e-06 -8.043001294156416e-06 -0.14658716316100867 -0.009166296788093943
0.41563125 0.008120599502842992 0.5340874381521649 -2.6770599023524227e-05 -2.080401946506225e-05 -4.998595525100735e-06 5.286155320491502e-06 -0.07532900561999213 0.13198634155394176
0.42805 0.4375124542656875 0.29402214730192067 2.292963344415792e-05 4.5185462857172625e-06 -1.4069414854378534e-06 -1.4466898165042623e-05 0.08810126065948158 0.12743290131561463
0.44046875 0.502335537562095 -0.17193433068145644 1.0114174117297483e-05 -7.068405283928522e-07 7.396365851992481e-06 -1.85611941800175e-05 0.1547924184532062 -0.022116635661792023
0.4528875 0.17532361547956704 -0.5290163591621464 -1.7388551767646283e-06 -1.8175590568797293e-05 3.775630339744885e-06 -1.924871647915067e-05 0.05330393591510137 -0.14971422237475013
0.46530625 -0.34680106198259336 -0.4712230357682733 8.521771543585277e-06 -1.2958327685789982e-05 6.041843627970995e-06 -2.049437195082946e-05 -0.11003468792560107 -0.12093979372857075
0.477725 -0.5868728207988101 0.012485372414742159 3.439051222978677e-06 -1.4984698824569412e-05 1.2723696452712297e-05 -5.270073562146195e-06 -0.1629369320069005 0.043040287328457154
0.49014375 -0.34115677970025005 0.4674141805003308 -3.7504285219784706e-06 -1.3679407208765522e-06 -7.424921495880477e-07 -2.367824386476646e-06 -0.03593976908849042 0.167677509517872
0.5025625 0.15865457265344216 0.5653488483203324 -3.156991066119833e-05 -2.207342861416194e-05 1.439155364854122e-05 -2.119113126043252e-05 0.13400326160634174 0.10846832870508345
0.51498125 0.5719317967741819 0.2152153707296047 1.6323678075212583e-05 -1.8682851142667724e-05 2.3221717622250926e-05 -1.3383854914702186e-05 0.15866947792934016 -0.07099446326754122
0.5274 0.5136277857606697 -0.36058620995512725 1.056585528715842e-05 -2.8784960623975965e-05 1.3193466102902841e-05 -1.3177285210521405e-05 0.007876087140904861 -0.17761323779359986
0.53981875 3.827394979879164e-17 -0.62506103515625 3.8362067677559224e-07 -4.044743351278743e-06 -5.135107673925229e-06 -6.067511639798355e-06 -0.1588953296359623 -0.08887185059093136
0.5522375 -0.4973989652647615 -0.38155990573199494 2.811338647144098e-05 1.5070070665939857e-05 2.138672297796078e-05 -1.5781385121268562e-05 -0.15562274602458592 0.10355463107301599
0.56465625 -0.6285652272870899 0.16576238775978933 -7.011765983061084e-06 1.2252529383872964e-05 3.7939856914578784e-06 -2.751260734343489e-05 0.020508566000112 0.19025832331226242
0.577075 -0.2455955180084646 0.6248543571489643 1.7937635782996533e-05 -1.5866609604766863e-05 -3.36069801152871e-06 -9.794871868050603e-06 0.1807164357456109 0.07120032997460483
0.58949375 0.3608952692985178 0.5711643315733698 3.2250002660979076e-06 3.034191782898039e-06 1.2408563336309699e-05 -1.8220410609358992e-05 0.14868641374800076 -0.12696389930543212
0.6019125 0.6795557156835599 0.05248587022598725 6.342750084341111e-06 -7.089893127037017e-06 1.296554771199717e-05 3.335677467462185e-06 -0.043890857617330394 -0.19220349113000576
0.61433125 0.44811121967504225 -0.5329303832194923 9.522674516913772e-06 2.232812884016003e-05 4.081735584463507e-06 -6.753975335312029e-06 -0.19362313274318876 -0.04894924047494287
0.62675 -0.18506444931799518 -0.6773525186734266 1.4064572335264928e-06 -8.515642224527035e-08 3.0633421920847297e-06 2.1393430011545908e-07 -0.13160630483142244 0.1537512536575009
0.63916875 -0.6528411204261486 -0.24835785080861852 1.2195046258106004e-05 -5.905781551998942e-06 -2.8654042828279745e-05 -1.4019065246716098e-05 0.07986418903084455 0.18818390868244042
0.6515875 -0.609295797908389 0.37109518544162884 -2.1597822557060842e-05 -3.092456086264328e-06 3.3172324252636567e-07 -2.143275342484016e-05 0.2063726915362379 0.01541130104417604
0.66400625 -0.07340773179694254 0.7437616724435758 -1.401630449357117e-05 2.5503532280667194e-06 1.823857228678412e-05 -1.4335838095389035e-05 0.1125007895554684 -0.17872117302228874
0.676425 0.5813114015317133 0.5009244786462353 1.467374937043549e-06 -2.626273008240502e-06 -4.611316598658268e-06 5.6881555176068215e-06 -0.10858442027447156 -0.18724733363551366
0.68884375 0.7316334005752145 -0.17468054721827073 -5.136106794221867e-07 -1.4425894001121699e-05 -3.6446724933006976e-06 -2.5767463289779098e-05 -0.22008544892555051 0.012015716188980088
0.7012625 0.3059322407665709 -0.6732522578760762 9.166773320227504e-06 -2.449728103361382e-05 1.576967158910866e-05 9.460690260957016e-07 -0.0884940059780981 0.20190157764652672
0.71368125 -0.35401636701584943 -0.6685544340363951 6.3384975046585095e-06 -3.255797343717195e-06 1.6887003626204215e-05 -2.742261484756846e-05 0.13742565309593588 0.17064412413999897
0.7261 -0.7791859356734946 -0.10171720650080009 -7.58665764015841e-06 -9.851244071006106e-07 6.004798127996695e-06 3.3162155672006786e-06 0.21663606818163747 -0.04058858271307618
0.73851875 -0.5418668233075303 0.6032912884695791 -1.582991505833666e-05 1.5324358091418975e-05 1.4381219939114545e-05 -3.1224689321406982e-06 0.07067084761270191 -0.2186686213346994
0.7509375 0.16499055399938015 0.7897114432746098 -1.156339105084857e-05 -5.8343619956969005e-06 -2.69839172082645e-05 -6.117441409702854e-06 -0.1675294749580174 -0.16693659976579203
0.76335625 0.738245308080515 0.3518624120792361 1.857582880477903e-05 -1.2479865475531522e-05 2.3040222357603263e-05 -3.27027607329215e-05 -0.2258049731975042 0.07630724635078333
0.775775 0.7348678379194844 -0.3893394895410531 6.47842733084476e-06 -2.2317065124966323e-05 2.902264085851933e-05 -3.6926245307196734e-05 -0.03472932556503205 0.23281363635195323
0.78819375 0.12276071403512635 -0.8195000624929153 5.841369078949805e-07 7.70413883969139e-06 1.9405549401703444e-05 -2.420397478594985e-06 0.18708536277042487 0.13930632614667668
0.8006125 -0.573199840433292 -0.5932419648110145 -3.072579631778241e-05 -1.725132812720288e-05 4.939176964540965e-05 -3.305369312321924e-05 0.2142255830793626 -0.10070970037639498
0.81303125 -0.8338368298536399 0.0994982109993795 1.1699849825366422e-05 -2.460691297616654e-05 4.068052400736292e-05 -1.688130165059217e-05 0.00758895156879658 -0.2429616469079171
0.82545 -0.41024936417777 0.7566921961260433 4.423023128997751e-06 -5.940023755699803e-06 1.655491482538503e-06 5.354551118421868e-08 -0.2191673456704269 -0.1156531494744826
0.83786875 0.3861219533819508 0.7663118705355084 1.039380578409246e-05 -6.748808979802766e-06 1.0701898044364446e-05 -2.8247177033644267e-05 -0.2020243490292069 0.1446435615457637
0.8502875 0.8331190517017003 0.14641093056288854 -2.1133060764879354e-05 -1.6716103024994027e-05 3.0086470791628043e-05 9.04046135412767e-06 0.03328250338935757 0.2455574680840805
0.86270625 0.6382101946518235 -0.5764221997325905 6.500581141238122e-06 -1.768368602545786e-05 -2.4821730298166656e-06 -1.0525328466801191e-05 0.23313836135779745 0.08994051979580944
0.875125 -0.08464931442515332 -0.8873595394031889 -8.923009976107697e-06 1.2232296191499688e-05 1.761434352976853e-05 4.34097638728664e-07 0.1940858575158358 -0.16398804979286594
0.88754375 -0.7769123667567103 -0.44615257591199076 -1.4281310356601381e-05 -1.312946323717412e-05 2.3033177002445667e-05 -2.1201548264676242e-05 -0.05475321268828237 -0.25168143644583896
0.8999625 -0.8029715636847308 0.34433550815335984 6.663109516753003e-06 9.26763053725963e-06 -1.1100023689553019e-05 -2.2278415896545985e-05 -0.25086746852760305 -0.06634059906067317
0.91238125 -0.23088432046026386 0.8439257211197292 -4.0526443646799036e-06 -3.0880497635271e-05 -3.6528576785706055e-07 -3.151570170134048e-05 -0.17174952142014327 0.1952512503937253
0.9248 0.5590115844463274 0.7243169155011673 -1.2489965165642473e-05 1.1227526155433495e-05 -1.1330227529781536e-06 -1.0647300556316358e-05 0.09816192820202391 0.24139423206910948
0.93721875 0.9455852631845728 -0.06316872620274457 -8.506435779320205e-06 -1.2281632849875224e-05 2.735967454515477e-05 -3.4584389619708763e-06 0.26220942737452557 0.019985536958656597
0.9496375 0.46362688145857667 -0.8037211568056071 1.1985666928596431e-05 -2.6409811411969855e-05 2.128461208619352e-05 -2.5868772294887614e-05 0.1363271819314149 -0.22898548374230834
0.96205625 -0.3486433010464234 -0.8266747053067629 1.670413564778415e-05 -1.7581222018573942e-06 3.1753276274178844e-06 -2.9878071807939915e-05 -0.14382081126876178 -0.22640009510555387
0.974475 -0.8734678112405773 -0.248659340460081 1.7178463628052586e-05 -2.951879599215666e-05 1.0268495822994042e-05 -4.23513747307761e-05 -0.26716015811434346 0.02164919242005965
0.98689375 -0.7556202015355524 0.5710177020845462 -7.643822985411471e-06 3.4596031279051143e-06 -5.728334811266373e-06 1.6573865380621968e-05 -0.10775148210468066 0.2454738218921944
0.9993125 0.033535602277106724 0.962214849675196 1.89913900909716e-05 -1.206520186529391e-05 3.803846243058545e-05 -2.6708316767613302e-05 0.16465282128393355 0.21399008292535712
1.01173125 0.786995345613783 0.5292362194431481 -1.2558545970637022e-06 -1.8410441611825858e-05 1.2085581955249346e-05 -1.5060426320863697e-05 0.2696431681685627 -0.04483936603657614
1.02415 0.8963970300120802 -0.3071852650742566 -1.28778318224068e-05 -1.7012112008345052e-05 3.69740022180986e-05 -5.427588535561716e-06 0.08377160277226747 -0.2641815349473754
1.03656875 0.2848345693274215 -0.9287071653967814 4.1101643534956815e-05 -1.7773295889969174e-05 -3.2681301636234115e-06 -8.48436535045749e-06 -0.20196479547911556 -0.19207657415620627
1.0489875 -0.6113361399593819 -0.7629869508865189 2.592898940934459e-05 -3.076458874908926e-07 5.971699311642634e-07 -2.0849350022979493e-05 -0.2587771369115119 0.09719545098806821
1.06140625 -0.9509119197905543 0.05308619093348682 -1.7496386466714311e-06 -7.450939140717182e-06 1.7441803123460227e-05 -2.605925039616172e-05 -0.02901882428346395 0.27181658671405384
1.073825 -0.5388971662748204 0.772648122886693 -3.193472862621836e-06 3.7545992897671297e-06 4.022414399339226e-05 -2.901140137417057e-05 0.2287743772926691 0.15204005253837194
1.08624375 0.28358824367084906 0.9305242439193575 -7.5140460781274395e-06 -2.1606804090545764e-05 1.2365100897809862e-05 -1.3172353272222285e-05 0.24538708603405174 -0.1352612925560119
1.0986625 0.9592859024335126 0.32510497839805397 -8.55765095878677e-06 -7.486299796368979e-06 9.316183296922838e-06 -1.2582554004300302e-06 -0.010839818938746821 -0.28685886422663615
1.11108125 0.8077092956429146 -0.6087389521346351 1.2780084807654368e-05 1.7323050896435494e-06 3.2725727849175295e-05 5.530440393214158e-07 -0.2633024167023272 -0.11813434684706696
1.1235 -0.02243559264692905 -0.9850961099830677 -7.696902055706832e-06 -8.166415371080189e-06 -3.950825410215846e-06 -1.2650609274919402e-05 -0.22202341095565187 0.17894047027344098
1.13591875 -0.7898284200446668 -0.5672880481776784 2.288407376940376e-05 -6.269304695031599e-06 1.1717847153342201e-05 -1.2727554517897898e-05 0.0537161741031999 0.2766478401004229
1.1483375 -0.9348529046223087 0.30417496273697997 1.25280499300734e-05 -2.0406426207226424e-05 1.1617926805993607e-05 -2.8525548351996973e-05 0.2700945982176724 0.083422636477644
1.16075625 -0.29908459449556307 0.945876139977788 -4.518998172006709e-06 -3.3220013653362427e-06 7.48026773531211e-06 -1.8612883787446754e-05 0.2017046731916863 -0.20356973582950572
1.173175 0.5842044259561192 0.8032819591450426 3.013384508813814e-05 -6.647919556643344e-06 1.9700180264351946e-05 -6.25946674090157e-06 -0.09175674414274969 -0.27441851454219107
1.18559375 1.0052150977448917 0.0177099806267332 3.271229442980132e-05 3.100744903491246e-06 -2.1910075768326087e-05 1.1626811083931396e-05 -0.2858632999577323 -0.04120944611787727
1.1980125 0.6350879654634121 -0.8353012609525733 -1.1079663457773605e-05 -1.1219532022907134e-05 2.0489178662020426e-06 -2.8063352153891092e-05 -0.1708645051642608 0.23792685715753417
1.21043125 -0.30516101600522705 -0.9930494200654235 -1.733681368017697e-05 -2.92306339777918e-06 -9.430809305025467e-06 -2.1782720025998862e-05 0.1344163424171622 0.26057071632360024
1.22285 -0.9590974288886068 -0.3388985098963384 -1.2303631487956494e-05 -2.719413909015241e-05 5.64765464609808e-06 -1.0947463054818265e-06 0.2962649420378744 -0.005191528409754586
1.23526875 -0.8472715958906247 0.5594686660113749 -2.2806815153940094e-05 -3.565452473741382e-05 2.598582523116367e-05 -2.2995054071037625e-05 0.1249510268665572 -0.2700222453282414
1.2476875 -0.04403976339109399 1.0362349921442242 1.8101534558925284e-05 -2.6207545284379266e-05 -1.8888360603037996e-05 -2.433633541959331e-05 -0.1854761622805091 -0.23090494980417092
1.26010625 0.8320392653270345 0.6349384354014959 -1.4316807078407628e-05 -9.552072506256017e-06 -1.2527191856974839e-05 -1.7805289560344872e-05 -0.2897630026612629 0.0567753885143904
1.272525 0.9938763354715966 -0.2958927168292525 -6.039264309973653e-06 -1.9943043790541748e-05 4.450921367994757e-05 -2.4342649647071816e-05 -0.08959718974407146 0.2845041146382101
1.28494375 0.3760221828090747 -0.9677206133598162 3.3324494287106033e-06 -1.1859290779204756e-05 2.5592837377118433e-05 -2.0403083001254644e-05 0.21102253367758142 0.2178950579981356
1.2973625 -0.549611234405742 -0.90866206336582 3.700844579051305e-05 -1.858344391853161e-05 2.772506520633917e-05 -1.0228853429680215e-05 0.2934569360603108 -0.08698031353206417
1.30978125 -1.075050203861093 -0.08608339704994086 2.5080758595662876e-05 -7.929087014612566e-06 8.409855622075847e-06 2.94167852011175e-06 0.05585770025202432 -0.299104505062278
1.3222 -0.6786447142019169 0.8153029686665673 2.3482082512255356e-05 -2.1952833505761223e-05 8.224622370259092e-06 -7.10782102903125e-06 -0.2406677362051496 -0.18099625388569773
1.33461875 0.2507778453177266 1.0081571646719647 1.990934905414855e-05 -1.699949605741361e-05 -2.435681678474491e-06 -2.2338556292101334e-05 -0.26682016997518826 0.13590584292252675
1.3470375 0.9654581345782844 0.4023950904471372 1.4968066705745661e-05 4.704552017026244e-06 3.3488552168099155e-05 1.9202428078936323e-05 0.006060535468803078 0.3002775911192813
1.35945625 0.9123743827457662 -0.5620384303825269 8.651969597467332e-06 -1.721208952845213e-08 1.4396219781450486e-05 2.914892589605679e-06 0.2744663257662988 0.12885248113786119
1.371875 0.07341476485684388 -1.0805778088895088 -8.321749745072297e-06 -7.629654697788481e-06 -1.8352665961482103e-05 -3.258319965642873e-05 0.24297424135187912 -0.18840912412203417
1.38429375 -0.8199442614364025 -0.7037863073785624 -4.541246827750658e-06 -2.865965781745063e-05 2.525174860142819e-05 -1.6488160629220878e-05 -0.054901025857353035 -0.30622901855056234
1.3967125 -1.060808381780855 0.22472598952164727 8.915540554286249e-06 -3.417570211075274e-05 -1.1070767818801556e-06 -7.258607308851995e-06 -0.2965247992986937 -0.09549814402744085
1.40913125 -0.4530629767797289 0.9887915928267128 9.310576811782967e-07 -2.486608561957023e-06 1.692197412979626e-05 -1.7320026744513617e-05 -0.22271548591234583 0.21448773568178786
1.42155 0.5279409110739491 0.935884641123444 -1.1248896027897663e-05 -2.7172955586057077e-05 -2.309506767059343e-06 -3.248636065342639e-05 0.08373876581518813 0.2946838566949962
1.43396875 1.053455363537805 0.12608680606664016 1.420805030848853e-05 -1.7086877663665193e-05 1.5828401922939536e-05 1.1446547894355082e-06 0.3001017260913549 0.06125616452657317
1.4463875 0.7342757528749896 -0.7815718059126254 -1.945281414933521e-05 1.996313690675622e-06 -1.533145182841314e-05 -2.621119469059415e-05 0.19038666592939413 -0.2421658326527166
1.45880625 -0.2177936474786104 -1.0780117936338027 6.6525478649013085e-06 3.6020616808364164e-06 3.166462443219318e-05 -2.4605542693927427e-05 -0.13383148975629428 -0.2795528231124395
1.471225 -1.0065645057937012 -0.44404621601021954 -1.2245761027089964e-05 -2.6411403699077112e-05 -3.874123558890474e-06 -7.457011064856822e-06 -0.3107819802958624 -0.004958449971868179
