!Created with skrf (http://scikit-rf.org).
# GHz S RI R 50.0 
!freq ReS11 ImS11 ReS21 ImS21 ReS12 ImS12 ReS22 ImS22
0.13 -0.056220738417232616 -0.17489404787520346 3.0002963635999805e-06 -3.091622829333602e-05 3.2690406491096006e-05 -2.5322313465553013e-05 -0.03500845903988069 0.03961337973920921
0.131 -0.06993140083413735 -0.17146859047651758 1.1574357754784118e-05 -8.591469862928905e-06 4.8484287031494425e-06 1.7155410223732934e-05 -0.031575187938493246 0.042842217732876615
0.132 -0.08353118356157427 -0.1667397689628646 1.2310550421086216e-05 -2.6143668421350134e-05 1.788759737174384e-05 -6.732414926811637e-06 -0.0279021282113766 0.04586135085727206
0.133 -0.09693733791339817 -0.16115656040526866 -1.4086616423483167e-05 -3.8159407709966955e-05 2.1154704551616665e-05 2.9196198392715605e-06 -0.023922433402592428 0.0485766692742842
0.134 -0.1097672397772293 -0.15448873736106794 8.834989195571533e-06 -2.1239390025221522e-05 8.948582820140097e-06 -1.2809617810352528e-05 -0.01961918143606261 0.05089181224405545
0.135 -0.12252918201330576 -0.1465107775478522 -1.5144645753899229e-05 -7.216022448319926e-06 -2.3033553934168525e-05 -1.0251435871587184e-05 -0.015127425341662958 0.05293261830780358
0.136 -0.13402937154576205 -0.13773521593696406 -1.1935337771233246e-05 1.0179735397587965e-06 5.886629271004377e-06 -2.680354870784701e-05 -0.010477551814054572 0.05439717133997503
0.137 -0.14546921215235528 -0.12810037713148192 2.2077597609964494e-05 1.366424039780546e-06 1.1484446761030647e-05 -1.567289026051078e-05 -0.005561700292604646 0.055613626975512954
0.138 -0.1559378631086852 -0.11737431654468213 2.116097710122989e-05 -1.2410902426078876e-05 5.342735775306311e-05 -4.0143451651303764e-05 -0.0006070982216667044 0.056356974902306727
0.139 -0.1657548766811895 -0.10585187340185824 -8.234874198937213e-06 3.584173816886713e-07 1.842122168649708e-05 -4.7774532264890226e-06 0.004460253502484664 0.05662353882103269
0.14 -0.17478230481770898 -0.09351503188675371 2.099288727522564e-06 -1.1016281732672621e-05 1.5054069115364978e-05 -2.9968323321305626e-05 0.009611744172886728 0.05644416630164674
0.141 -0.18281606561352906 -0.08038149341905954 1.8929008176973714e-05 -2.159330465814107e-05 6.931406023899416e-06 -4.77363195014084e-05 0.01467138254515899 0.055818542533057146
0.142 -0.18970703571943828 -0.06671336686351664 2.5491892082553702e-05 -9.09321796624899e-06 -9.660567199410072e-06 -6.99870694760365e-06 0.01977887246799498 0.05472478008800365
0.143 -0.19561003501832636 -0.05195642289662905 4.780685731073279e-06 -8.85164338166692e-06 1.8028244444284725e-06 -3.249229727500072e-05 0.024822766886962916 0.05310965065924549
0.144 -0.20054916448862925 -0.03699990636735049 -7.510925002136839e-06 -3.737363628014319e-05 3.5232951997701486e-05 -3.966530585821458e-05 0.02970812186110719 0.051065283378606476
0.145 -0.20437026601223923 -0.021423833108938823 3.4331165115606626e-05 5.217002171226917e-06 -1.5098803669105704e-06 -2.146610402901288e-05 0.034464686163484304 0.04859749549144148
0.146 -0.20681466768556542 -0.005726057530104073 8.287025660494047e-07 -2.579829864077871e-05 2.271985017470056e-05 -3.7086775928903395e-05 0.038967042683368605 0.04566866007411282
0.147 -0.20805079252360034 0.01044838824728471 2.7639782358123124e-05 -1.8186170503993762e-05 6.6850655667797425e-06 -3.2958596403355455e-06 0.04321274692080139 0.04225706777108031
0.148 -0.20798476353527176 0.02671841087072562 2.4275597478712675e-05 2.6278384830031603e-06 -2.2189812799400695e-05 -1.9505038704082035e-06 0.047190667713279004 0.03849741368296297
0.149 -0.20653819907678872 0.04293062732867031 1.4761364187953293e-05 2.425869708662685e-06 -6.32298890857892e-06 -9.385254241935905e-06 0.05077502570903113 0.03434901246331987
0.15 -0.20395298891586963 0.05917542044776312 1.7244255706985537e-05 -4.025053516929135e-05 3.5762991369092532e-06 -2.0058218421870627e-05 0.054038714388065276 0.029881946521051292
0.151 -0.19978734318675995 0.07513243629172642 1.612896830747188e-05 -2.2356297584628977e-05 8.265996639244579e-06 -3.241771561201127e-05 0.05686997678028243 0.02507083910256738
0.152 -0.19465545739590384 0.09099562502245434 -4.988465148435797e-06 -2.3089331027507467e-05 3.4573736179257016e-05 -1.948704475601529e-05 0.059303408611618216 0.02004403477973989
0.153 -0.18811933033735168 0.10643279615578632 -1.1483504963517394e-06 2.435281775809315e-06 5.456561240492339e-07 -1.381360804785476e-06 0.06129172049863746 0.0147015822570656
0.154 -0.1803198643684822 0.12105574694767934 2.4598064097271782e-05 -1.3222420088586753e-05 9.380231474987222e-06 -7.998856450482589e-07 0.06277315135122215 0.009215860549353925
0.155 -0.17155248849809487 0.13539285948895324 -4.5449764972964217e-07 -4.192567887805732e-05 2.6404374223348693e-05 -1.777987067391781e-05 0.06369208294017699 0.0038517183541881203
0.156 -0.16162979093530405 0.1489600831891838 4.7088730039525455e-05 1.2679343044839375e-05 1.3616111917683986e-05 -1.952362774173693e-05 0.06422130703970685 -0.0021882046566962547
0.157 -0.15052490663349305 0.16177163335137523 -1.4193487516724928e-05 -1.4597872819792396e-05 -1.4536357104106669e-05 -1.970931971578932e-05 0.06417959413180681 -0.007984659949554919
0.158 -0.13826445490208755 0.17357920315985292 -5.688413076709516e-06 -5.292941843547023e-06 4.30235286057586e-06 -5.7427436290862075e-06 0.0635716552131267 -0.013816942650436427
0.159 -0.12515919030679046 0.18476708088400964 9.00471638868757e-06 1.424039836323923e-05 1.7503045264785625e-05 -4.977779001687376e-06 0.06240241859432192 -0.01955736788353358
0.16 -0.11142098249537455 0.19476131641656497 -5.231897071545761e-06 1.8294617577283883e-06 1.2410002858186342e-05 -1.613200133660308e-05 0.06074220215055069 -0.0252184845315747
0.161 -0.09668586147925147 0.2037059671138734 2.4332500604049535e-06 1.530216158720029e-05 -4.891110431319561e-07 -2.103475384189551e-05 0.05858353857044957 -0.030763669114601003
0.162 -0.08114598272078416 0.21156494299254464 3.942673667260128e-06 -1.8016627611603565e-05 -1.858235847627409e-06 -8.575431840770823e-06 0.0559146660546729 -0.036105803153300836
0.163 -0.06505518532203092 0.21825588987367653 -4.096844185039095e-06 -1.4950707778820037e-05 -1.7771052095757087e-05 -1.3682464559875781e-05 0.05274528732375335 -0.041168612658263465
0.164 -0.048668381234311366 0.2234915156781586 1.71341066867843e-05 -2.7823882722434557e-05 -1.0514519241018842e-05 -1.835590314372614e-05 0.049093942189327125 -0.04603178600165328
0.165 -0.03156094385543198 0.22783538060316966 1.607777202857726e-05 -3.4319931580784046e-05 -8.229915376885462e-06 -6.722251822917103e-06 0.045029320469840525 -0.05051691414711695
0.166 -0.01433059508984297 0.23043556345045157 3.665732191020296e-05 -3.206811108251728e-05 1.0625753570179527e-06 -1.0538030423766423e-05 0.04054338034784463 -0.05454974019668166
0.167 0.002991629157584594 0.232158459881374 2.772830197787529e-05 -1.0128150962274116e-05 -2.650452597501453e-06 -1.2608822492014492e-05 0.035691833241884546 -0.05829283118144307
0.168 0.020568635979046217 0.23254396215824563 1.719359639606939e-05 -2.0157537047092144e-05 6.453624919143194e-06 -3.467657754113498e-06 0.0304878982421744 -0.061669578894453334
0.169 0.0380503494542863 0.23135072431286102 -1.3033807558564979e-05 3.5419705088229157e-06 -5.16438009792615e-06 -4.27377029941609e-06 0.02497011354549538 -0.06440544653570102
0.17 0.05553683489151135 0.2287835998507491 3.415318494360604e-07 -6.000112282782643e-06 1.8540364208015176e-05 -1.6115783154482248e-05 0.01928585124092617 -0.06669109885880353
0.171 0.0727009964688868 0.22521260374986732 -1.6525075753529248e-05 -4.454456780888065e-06 1.1536648466732625e-05 -2.794889463171132e-05 0.013354920503198194 -0.06848074505581092
0.172 0.08973342091716917 0.22023690648835784 -6.965298006800856e-06 -1.4190016215154172e-05 1.5066898372939805e-05 -8.151753258418243e-06 0.007286923183612974 -0.06969608993726688
0.173 0.10632065571350137 0.21401302122086846 3.781593207189073e-05 3.4172802270418255e-06 1.4631951283627748e-05 -2.27513251004301e-05 0.0010803518891896568 -0.07042246925753451
0.174 0.12263363080418475 0.20667335849775378 1.887831607361372e-05 -1.2406632410179669e-05 1.5658156599143448e-05 -1.587746027211904e-05 -0.005138082700842179 -0.07050700292779039
0.175 0.13824452965796258 0.197878373446601 -7.468613593962194e-06 -7.3594311293412e-06 1.964442473566604e-05 -1.5665179850268896e-06 -0.0113744716170513 -0.0701130118703703
0.176 0.15342226856957006 0.1881326172664244 -8.122952494292594e-06 -6.740812008122197e-06 1.4100893204667007e-05 -5.036435491223648e-06 -0.017538596175869028 -0.06911763813980087
0.177 0.16810835191911486 0.17722182017888632 -2.5063926370007498e-06 5.184541780491318e-06 4.123250548777218e-05 -2.470903669796108e-05 -0.023673934429260676 -0.06759918994007354
0.178 0.18133939293395948 0.1651802511612024 8.851629416133329e-06 -4.82361444464795e-05 1.8130019445440088e-05 -1.2893824082540465e-05 -0.02949621134163998 -0.06549108398346302
0.179 0.19391732263516268 0.15171783729729185 -4.9480087306174235e-06 -1.2983742403404887e-06 8.167395817512357e-06 -1.1631308093857378e-05 -0.03513997049006469 -0.0628977246075942
0.18 0.2061626196422799 0.13776362401622058 -1.3226219724665393e-05 -8.327483976015016e-06 1.2096485054861012e-05 -2.3861212154379165e-05 -0.040746533712526366 -0.059932090740309495
0.181 0.21692807785863935 0.12277105146439045 -2.6023305682471655e-06 -7.321774984239658e-06 1.06650467233972e-05 -8.044671989112585e-06 -0.04595445578045262 -0.05641794221953566
0.182 0.22637989914274334 0.10707916160589312 9.038819982416643e-06 -2.0102022545739e-05 -1.07053052788665e-05 -4.75931443006633e-06 -0.05093959714096861 -0.052419506465799924
0.183 0.23495433583413347 0.0905536888332605 2.100224728162867e-06 5.801065317503049e-06 2.344878637722618e-05 -1.1269981716719222e-05 -0.05558885324396234 -0.04796449589635306
0.184 0.24243453048281088 0.07332517201003136 5.323915360858935e-06 -1.665928484609236e-05 -4.604781527957121e-06 -3.3121093587466844e-06 -0.05980431335281768 -0.04307771126337948
0.185 0.2486398359179741 0.055368938261678505 6.708422748069326e-06 -9.8750539623271e-06 1.5660935196096513e-05 -3.6024401296772694e-05 -0.06362760557255465 -0.03788969608965508
0.186 0.25390151770528946 0.036847107639537774 -5.167440962313505e-06 -2.7126854016345856e-05 2.6235060177724012e-05 -5.319890358684513e-06 -0.06698859817132992 -0.032322724041244366
0.187 0.25733550485254936 0.017791916024106586 -1.1367925467545455e-05 -9.703765308289816e-06 -6.648520173865078e-06 8.706833792953997e-07 -0.06986121625951543 -0.02645715453456674
0.188 0.25924357338949006 -0.0012986671777055509 7.374890387894606e-06 -3.619821302654288e-05 6.10721952382608e-06 -1.1335486414948214e-05 -0.07215996832603333 -0.02040433562803063
0.189 0.25982247588400587 -0.020952066441495703 -1.3284177204570775e-05 2.2863689594552417e-06 -2.1943742825110338e-05 -5.439419185870975e-06 -0.07391844983456941 -0.014106966037999609
0.19 0.259152039204565 -0.04040746529573056 1.2431799594017756e-05 -1.0025041849782732e-05 -3.821431235646007e-06 -3.2287109487034826e-05 -0.07518166730428656 -0.0076428895778014
0.191 0.25664985046620786 -0.06017914205769606 6.29990568781136e-06 -2.7588065777712484e-05 2.174400410147669e-05 -1.3828503175032936e-05 -0.0760582724454324 -0.0010164026317661886
0.192 0.2529932264531179 -0.07983009198732618 -6.8475013497031845e-06 -2.239170760193085e-05 1.4651020488828184e-06 -7.399835596481166e-06 -0.07588154990411126 0.005389339923369943
0.193 0.24783449342992495 -0.09928747838082198 -3.629107909599635e-06 -1.4835320698663649e-05 -4.313684319803417e-06 -1.9783046729513115e-05 -0.07574280496734487 0.012261298347122944
0.194 0.2407238704055049 -0.11829390108878107 2.60168978437649e-05 -1.0327809364173788e-05 1.2336028816908109e-05 2.4401754183525587e-05 -0.07452021907744424 0.018720345704934107
0.195 0.23222050572358807 -0.13679366301073725 2.4893421615186496e-05 9.007166005438234e-06 -6.947593288830947e-06 -8.170614940513486e-06 -0.0732411137704063 0.025498535832473846
0.196 0.22214113292463591 -0.15457635826369673 3.2199318662423146e-06 -2.352754856494592e-05 5.1172115886174725e-05 -2.062315228391326e-05 -0.07072647302013411 0.03158194362573614
0.197 0.2108259256803887 -0.17213219764260057 1.8068451417688268e-05 -1.4238772034316597e-06 2.039660073738448e-06 -1.3336535462852166e-05 -0.06817426451659964 0.03793556893978438
0.198 0.1982157456565676 -0.18860117684023844 2.278048315021961e-05 -3.0670014825224317e-05 -1.4505171018641456e-06 -7.880247463159401e-06 -0.06490993611548251 0.04398864804229249
0.199 0.18395977282255402 -0.20393025488285738 3.0760816411712085e-06 -1.1921144181703625e-05 1.6411576282556227e-05 -3.655206540913593e-05 -0.06111144303384559 0.04973591193576175
0.2 0.1688669537245235 -0.2188334493025295 2.399554655687337e-05 1.1949443311206094e-05 -4.260234960405889e-07 -1.730618113494545e-05 -0.05674396645289978 0.05506679958222885
0.201 0.15205915982599838 -0.23168754644578257 -7.196204878746463e-06 -1.4132873937972857e-05 1.194084456883141e-05 -2.9330174745178287e-06 -0.05194863578114008 0.06010681353627709
0.202 0.1346131440513231 -0.24382771530640354 3.608121973297135e-05 2.6970668078564333e-06 7.227105827865377e-06 -1.5027827363156727e-05 -0.04674299213849026 0.06485548125825331
0.203 0.11587149692513637 -0.254210864690859 -5.063242037352785e-06 -2.4309222354846325e-05 -2.1825454367341845e-05 -2.8471609751006125e-05 -0.04131657720849473 0.06869866115332288
0.204 0.09656088351986408 -0.26334195812306394 -9.596214331914963e-06 1.454235601258399e-06 -6.228763860673897e-06 -3.7920067524788965e-05 -0.03499517159182833 0.07261574859472276
0.205 0.07647102395414532 -0.2711457981970778 1.0223166413863435e-05 1.7902410033949908e-05 8.372150293135894e-07 -2.0732038037339e-05 -0.02854778648148783 0.07577129097281518
0.206 0.05555239772216185 -0.2768141347452781 1.7471592396820616e-05 -6.271597967668955e-06 1.3073407440449996e-05 -2.3795040242704665e-05 -0.021876445195850185 0.07842693317963322
0.207 0.034293724111927604 -0.2810422440659136 -7.885277451898231e-06 6.671262503197765e-07 1.5608053641800932e-05 -2.169966909677323e-05 -0.014891674664168443 0.08050142490437193
0.208 0.012901752006567811 -0.2839477649345179 4.669223353336805e-06 -1.6414369188689547e-05 1.6725965772845326e-05 -4.076203280498313e-06 -0.007804966984927078 0.08175873269593331
0.209 -0.008975486639060778 -0.2848622966546237 5.043066123370879e-06 -2.173599493947241e-06 3.5415458480037625e-05 -4.7154899752759646e-05 -0.000540035279212284 0.08251013458784147
0.21 -0.031087829602423542 -0.28403988547620646 1.1601936522936385e-05 -1.3276874793462615e-05 -4.358652576033646e-06 -3.151210726319972e-05 0.006792907872392314 0.08263753708913277
0.211 -0.05291478224423846 -0.2820669049566801 1.0673137567198675e-05 -1.3830266068147359e-05 1.1757641178460804e-05 -1.422853772419311e-05 0.014312601239519543 0.08225249616998186
0.212 -0.07406187858983354 -0.2776136584291005 3.021858692722797e-05 -6.565682855370209e-06 -2.1297613923772033e-06 -1.604190248323751e-05 0.02162294681283176 0.0808964532694426
0.213 -0.09573088575777948 -0.2719254238794535 -9.167850809661189e-06 3.60205839341942e-07 2.2514199151502417e-06 -2.3315242920570598e-05 0.028902648864072896 0.07907373181061869
0.214 -0.11660755328092699 -0.26476595481209186 8.072775083215248e-06 -1.354283596110818e-05 2.531802211850606e-06 -2.0902568080755848e-05 0.03606845427582482 0.07657076036153208
0.215 -0.13659286461544148 -0.25546348196015556 -3.088371334379963e-06 -1.858769645499569e-05 -9.704252521139608e-06 -1.4035564645407091e-05 0.04301834914927291 0.07334476710294657
0.216 -0.1559760358895576 -0.24498073754264696 -8.020947310819828e-06 -3.1747056353095673e-06 -7.105962241496018e-07 -2.40641991757295e-05 0.0496213154012057 0.06947129873236063
0.217 -0.17421437921016195 -0.23293675772878109 -8.28551749323755e-06 -2.974270574476573e-05 -7.958085447730706e-06 -8.503730713279367e-06 0.055929407133314075 0.06498538924660874
0.218 -0.19241341710134646 -0.21946581106502275 1.6537920387866095e-05 -1.3348329332550766e-05 3.351932153957981e-05 -2.331585862637803e-05 0.06184194858259835 0.06000182292400658
0.219 -0.2096086568662423 -0.205140821760684 -5.99069470119467e-06 1.6160405853643195e-05 1.5548779652983295e-05 -2.246412364619151e-05 0.06746176976669796 0.054465927952441665
0.22 -0.22475819623439747 -0.18927445121202544 1.9823529339728703e-05 -3.126675622842112e-07 1.7994471208818588e-05 -5.818972363888214e-05 0.07232727328104274 0.048291884158545934
0.221 -0.23883343606973823 -0.17203437715865436 1.990091679472041e-05 -1.9823730027211245e-05 1.5913395359991343e-05 -2.8954774970897643e-05 0.07666299422234005 0.04174481124738753
0.222 -0.25219880563565333 -0.1538861728290313 -1.7920290078383132e-05 -3.139373711648418e-05 1.513881029538536e-05 -2.8334337383226855e-05 0.08054715546275988 0.034806001451943985
0.223 -0.2640362552889842 -0.1347146387196798 7.822614174471663e-07 -1.4965480680665737e-05 2.6358290738027693e-06 -7.763163181947127e-06 0.08380047027461049 0.027433855328720076
0.224 -0.2743570907788942 -0.11460784917315514 5.9003979832012435e-06 7.382686339274834e-08 -1.866656639342675e-06 -1.0342880297177868e-05 0.08621549505431346 0.019864176701627902
0.225 -0.2823721867135805 -0.09371040796567012 -1.4508549811219275e-05 1.390788342107856e-05 1.680585693556602e-05 -1.1574823353038212e-05 0.08785890104864168 0.01204173247302597
0.226 -0.2899121797022868 -0.07245119979189166 3.909861522368849e-06 -2.952565743530735e-06 6.418713698290314e-06 -2.452935337014556e-05 0.08908547034461073 0.004021155597011603
0.227 -0.2952881221276365 -0.05086414559501923 1.3133547893503571e-05 -3.08704559888265e-05 2.3603958658918914e-06 -3.202886970660756e-05 0.08944104476482302 -0.004095445512634776
0.228 -0.29935143447831114 -0.028659488680863796 1.1319839676128852e-05 5.644827498104629e-06 1.272118514078518e-05 -1.5588381412957797e-05 0.08893654598283825 -0.012157388633516548
0.229 -0.30140484141993407 -0.0061655162422743475 1.0922477663826177e-07 -9.31398231427955e-06 -2.5940275049614116e-07 -2.147277210769417e-07 0.0878198953158063 -0.02022358731248959
0.23 -0.3022080221141083 0.016499254455411564 -2.7393346883284714e-05 -3.339745794982813e-05 2.199493477002734e-05 -2.1417750809619712e-05 0.08592045739247711 -0.028179771859382474
0.231 -0.3017209051064119 0.03934568652041614 -7.228918221367022e-06 -2.549867406464952e-05 4.550135647539506e-05 -1.635241714184861e-05 0.08323152262326065 -0.03584482033744009
0.232 -0.2981275440951442 0.061840999334297236 7.3904387353637625e-06 -2.0570846741880396e-05 1.6610847498494562e-05 -1.427635577594626e-05 0.07998736852030158 -0.04346490881561884
0.233 -0.2957907247165625 0.08569027950263183 -2.2862957646021993e-06 1.4582847272800948e-06 1.7309250180613385e-05 -6.293370555631236e-06 0.0759688405380536 -0.050566202531576725
0.234 -0.28772837334273926 0.10663917065485061 2.2826122016571625e-05 -8.431610708963673e-06 2.3715305005694023e-05 -3.13777029867795e-05 0.07127292516435435 -0.05737854368313623
0.235 -0.28123736570837277 0.1297452086043874 -6.569579180935448e-06 -2.7806517223551645e-05 -6.135056476729884e-06 -1.5037013448599734e-05 0.0660649354927893 -0.06378946275876482
0.236 -0.27180730249393475 0.15095607744688488 8.601527005896038e-06 -1.1975804015018774e-05 3.591283745922431e-05 -1.0554692659068402e-05 0.0601622482387234 -0.06959113506432417
0.237 -0.26031931468158137 0.17158785445914493 -8.932490287294887e-06 -1.504916957795909e-05 -1.1686457366830194e-05 -3.4722473031573415e-05 0.05389904684051091 -0.07491896309821569
0.238 -0.24783034673188648 0.19145870755360747 5.3546289898931255e-06 3.997922518980392e-06 -2.510686352383085e-05 1.114959377102017e-05 0.04708169806586113 -0.07971744184777994
0.239 -0.23352167426762124 0.21084113324471987 8.911926032881482e-07 -8.407444881166622e-06 -9.815473466465502e-06 -1.6498327590785404e-05 0.039800900380764705 -0.08359093943962786
