!Created with skrf (http://scikit-rf.org).
# GHz S RI R 50.0 
!freq ReS11 ImS11 ReS21 ImS21 ReS12 ImS12 ReS22 ImS22
0.13 -0.05659542232895686 -0.17466890473094815 -5.574588176612912e-06 -1.6596737251695052e-05 1.7653776114878648e-05 -2.1436578397372074e-05 -0.03513911505603598 0.039586834660202755
0.14241875 -0.19253319813538514 -0.05995589381333646 -1.9238706652387252e-05 -1.763385319181777e-05 1.2473079621776067e-05 -2.7129137695973558e-05 0.02185513804316316 0.0542850700860204
0.1548375 -0.17259037651781267 0.13310753756391192 2.4945771758743347e-05 -4.35807176895987e-06 1.494566879074943e-07 -5.219482839216166e-05 0.06345855927529125 0.005381922212213932
0.16725625 0.007505168861574466 0.23216326734348516 4.220939881091278e-06 -1.7023175291830895e-05 -9.888849025478494e-06 1.2762635675889723e-05 0.03467391079324831 -0.059187122907312116
0.179675 0.20246676797466442 0.14243836498365162 2.1192760941829255e-05 -1.0511805048930763e-05 -6.529982235403282e-06 -2.8532852641136498e-05 -0.03884733315777969 -0.06117118967034102
0.19209375 0.2520673477398667 -0.08192064594251752 7.333733919537086e-06 5.149679404744529e-06 5.535394769984945e-06 -8.830994920370579e-06 -0.07587621680163481 0.005773835806621701
0.2045125 0.0857598295323788 -0.2669105160162038 6.808478813599809e-06 -3.234570513358183e-05 -1.933972747807318e-05 -2.9674157151540524e-05 -0.031926159984864415 0.07428222160535794
0.21693125 -0.17318695843423443 -0.2328844868358133 7.577300386777377e-06 -1.884689902478553e-05 -1.188328948193527e-06 5.346404081549725e-06 0.05529984818535528 0.0654720265972574
0.22935 -0.30216002163571054 0.002430892657416624 -2.0838144183165615e-07 -5.678642629767941e-06 7.65414261253278e-06 4.326201099470562e-06 0.08737119412334059 -0.02278727661112403
0.24176875 -0.18680855429326546 0.25867431492084175 9.747893131186702e-06 -1.1265530435950175e-05 3.2940322054258424e-05 -5.494140375672857e-06 0.0185372959012281 -0.09178616988658576
0.2541875 0.11593630060038107 0.32548864511680503 8.98472461816198e-06 -9.264689077958281e-06 1.8104029612765268e-05 -1.341156415418608e-05 -0.07641364133883982 -0.06083320677451636
0.26660625 0.34725337932249584 0.09718205421434542 -1.6125593590550155e-06 3.18843496074015e-06 1.1337595009192367e-05 -1.0425310386970084e-05 -0.09383655461173464 0.041932132120583165
0.279025 0.29322284334322396 -0.2284636666997401 6.639522321521985e-06 -1.0602120288891633e-05 -2.1132565758516523e-05 -1.9857818228188227e-05 -0.005943671810320109 0.10818951862344754
0.29144375 -0.007083400394049072 -0.384761463514567 -4.259487896717948e-05 -2.3671503935767123e-05 1.1420799022122947e-05 -8.45456218108698e-06 0.09744861198512651 0.056235410512742036
0.3038625 -0.3251264714871605 -0.22891358095693032 -2.7506264283865034e-06 -1.3101404389921544e-06 -1.1117318317323437e-05 -1.2493572920545788e-05 0.09610689476050902 -0.0628372623161907
0.31628125 -0.3842895136033998 0.1316185436463963 2.7644195353730976e-05 4.762512147686902e-06 -1.6677748949239845e-05 -5.625850247441063e-06 -0.01224695456737386 -0.11636935097796278
0.3287 -0.125460626124521 0.3992386001085259 2.45789005645419e-05 -4.662326929480255e-06 -2.2538221691190198e-06 2.3093248610942634e-05 -0.11297352591010888 -0.04370261900197933
0.34111875 0.2623106995547557 0.35320668738203204 7.375381681771779e-06 -2.8470435580471083e-05 1.7983508889406192e-06 -2.6205388249060963e-05 -0.09399661468655918 0.08531036458515692
0.3535375 0.46016794864070765 -0.015193400955658035 9.20233617139019e-06 -1.4308777951783668e-05 -1.3192709859545431e-05 -1.576170079571873e-05 0.03685324886085023 0.12737464511287255
0.36595625 0.25619965182243937 -0.38914727876760913 5.254445923285691e-06 1.339013770416386e-07 8.583658693497555e-06 -1.875712036726662e-05 0.13368195286614887 0.02395251578961902
0.378375 -0.1557016948977714 -0.4496991593343586 4.220286533294515e-06 -1.0813146678665837e-05 5.243044823736548e-06 -3.365248319166027e-05 0.08558075660879938 -0.10956916511871286
0.39079375 -0.4649203787321852 -0.1624285925778413 2.9356537759492536e-05 3.5964034214316027e-06 1.9170975337746468e-05 -1.0351945416270432e-05 -0.057500289595526145 -0.12971857480296525
0.4032125 -0.42847635404013495 0.2952584864262941 2.080710926428767e-06 -8.967906929774186e-06 2.1778659545243917e-05 -1.4900385375843223e-05 -0.14650569438236977 -0.009000775495286542
0.41563125 0.007784426649525641 0.5335125480759781 7.5352131703890715e-06 -1.081278954469616e-06 2.2082304880650236e-05 -1.77737232824575e-05 -0.0751129211160824 0.1318372985266397
0.42805 0.4374795181752023 0.2945631996412706 5.801896453423447e-06 -1.4145935888648655e-05 2.491742874946511e-05 -7.771538594466609e-06 0.08814464822960642 0.12723586594909414
0.44046875 0.502325048272973 -0.17168209494067493 -4.41078049331756e-07 -2.134880802005806e-05 1.8356796450517915e-05 -4.224136589367083e-05 0.1547451665201963 -0.02228485023580102
0.4528875 0.1753692842158987 -0.5290333724035198 3.0609083416460484e-05 -2.2712566843257366e-05 4.855793632522931e-07 -2.9923179994687474e-05 0.05300538758264522 -0.14968259700089653
0.46530625 -0.3467970064923043 -0.4711502358893464 1.6662666570074308e-05 -3.455130285414909e-05 4.183295859049483e-06 -3.0063075338505613e-05 -0.110028709718014 -0.12080079530290845
0.477725 -0.5866592460784779 0.0124808287387919 1.896997136172498e-05 -2.3755299632067434e-05 -2.4153452329281453e-05 -1.6532409644569544e-05 -0.16283080522055038 0.04308351682188672
0.49014375 -0.34064599543618684 0.4671824023258943 -2.1112981775508802e-06 -2.0463356521600918e-05 9.635412541070786e-06 -2.379708513890798e-05 -0.03571257780106329 0.16745302009767707
0.5025625 0.159331225064556 0.5646511900048717 1.4217468632157231e-06 -5.760841991761975e-06 -7.837024997207346e-06 -2.1418392082382864e-05 0.13395706320361944 0.10829495177763204
0.51498125 0.5722174093412613 0.21445482602730265 2.8968830714295633e-06 -3.0987963763221176e-07 -6.553389209533263e-07 -2.3268249608534415e-05 0.15857078540282957 -0.07110281789821106
0.5274 0.5127263357560994 -0.36139032397232856 -2.541715731147811e-06 -1.3615418244411968e-05 6.788854805792159e-06 -3.3391222902828587e-06 0.007782629317623712 -0.17741880265378399
0.53981875 -0.0007663909903355961 -0.624511248498319 2.30115393203692e-05 -9.852639026316195e-06 6.8951340753804155e-06 2.5216523090046868e-05 -0.15888308766446688 -0.08858080473981099
0.5522375 -0.4973682684917569 -0.38099800844198733 2.7427395993411015e-05 -2.1227587541440686e-05 4.4428623349547e-06 -1.929215103872054e-05 -0.15535158066056767 0.10374133850844736
0.56465625 -0.6283498400142972 0.16598052586297676 3.777576659962342e-06 3.34671161053238e-06 2.4225672167597372e-05 -3.479691380434773e-05 0.020883858603745135 0.1902098195359501
0.577075 -0.24541192281237795 0.6247625521524733 -6.717544208346875e-06 -2.1432637208836434e-05 2.3082185865700303e-05 -6.405705484311388e-06 0.18063745345268387 0.07098432557062238
0.58949375 0.36112830291112014 0.570800358113148 -1.2194326296397765e-06 -3.628052218736973e-06 2.017930028560211e-06 -1.6342602084944683e-05 0.14856502772971336 -0.12703549007467213
0.6019125 0.6794453956705437 0.052328818329694576 -1.0809062355356387e-05 -1.3370431634537263e-05 2.780319924649046e-05 -1.813386259141504e-05 -0.04412897266951373 -0.19203936713117756
0.61433125 0.4482167416492747 -0.533240363543442 9.498689087691962e-06 2.1870627832388675e-06 2.400910981983449e-05 -5.0611147443775295e-05 -0.193594268946826 -0.048689262087794
0.62675 -0.1845665501108464 -0.6769822673582732 1.6230835760274618e-05 7.602944107765037e-06 1.3310144039300047e-05 -2.013328409226608e-05 -0.1313816768629935 0.15391315256807997
0.63916875 -0.6530708684058748 -0.24895506636102976 -9.102457455420907e-06 -3.0102800924274924e-05 1.5406805763162747e-05 -1.1008596610478135e-05 0.08000739521316161 0.1881645213256043
0.6515875 -0.609429110872894 0.37140426460322445 1.434922921965908e-05 -3.5775148630320334e-05 -1.0950899844267703e-06 -2.8927579001561214e-05 0.20625289364172864 0.01527333241096227
0.66400625 -0.07315419062204619 0.7437866527963984 9.86087688172248e-06 -3.1891345109603818e-06 4.727232796446922e-05 1.2547915719936299e-05 0.11217185799840089 -0.17868463249176597
0.676425 0.581521204596853 0.5005873537782672 4.1361827061784184e-05 -1.7131119148760012e-06 3.552987171984124e-05 -8.92068867611153e-06 -0.10876016220735717 -0.1868452269537251
0.68884375 0.7312234741837714 -0.17495157802190023 1.1268555577105927e-05 -7.668551593717818e-06 6.354307540190101e-06 -3.3050842839226434e-05 -0.21979964458711063 0.012210542555133435
0.7012625 0.3055776031153494 -0.6734468083661445 -1.2554903304746402e-07 -1.324793439223277e-05 2.7696373638489496e-06 -6.708753419399341e-07 -0.08809029638976153 0.20187828128942437
0.71368125 -0.35450599530511473 -0.6681567489267016 -2.301884038416817e-05 2.8040586283436606e-06 5.106404022457628e-06 -5.127684778278676e-06 0.13742711192746296 0.17018229521714887
0.7261 -0.7789909786137044 -0.10061166248888448 1.0130988379709218e-05 -9.613292670402623e-06 2.2857591748106077e-05 -3.4203755225388796e-05 0.21644477829094233 -0.04069786871370929
0.73851875 -0.540801851688476 0.6032628495366419 1.4028018863802883e-05 -6.1513690072628225e-06 4.6831871424597446e-05 -1.72282361552071e-05 0.070404215414863 -0.21865843441662988
0.7509375 0.16549873735867568 0.7889191122815243 3.8085693452181397e-06 -1.2277419203811049e-05 1.2538493502894455e-05 -4.011954229035838e-06 -0.16762161616848653 -0.16680081837693453
0.76335625 0.7382094682711787 0.3515828783536185 -7.265519838930367e-06 -2.7520159419331398e-05 1.2901535484359801e-05 -8.09851208230412e-06 -0.2255754312722283 0.07636678409683521
0.775775 0.734580748083032 -0.38962043195863455 1.4302535118936505e-05 -1.431912148107792e-05 3.223950308389728e-05 -9.385631838106338e-06 -0.034336369997143464 0.23267911670951627
0.78819375 0.1222739835547862 -0.8200665089859006 -9.149675819583621e-06 -4.643150509155778e-06 2.7120657330467074e-05 -1.4662531534045017e-05 0.18683921372677137 0.13911314006039388
0.8006125 -0.5729080183868421 -0.5922931250032322 -1.2668408921741542e-05 -2.3500146060344356e-05 1.9942392424257176e-05 1.3323114069928453e-05 0.2139822113469607 -0.10059974199958986
0.81303125 -0.8332475149831692 0.09954312668090949 2.0620496157724496e-06 -1.3042287545490646e-05 1.6103068874049538e-05 -3.044803208567949e-05 0.0073999996536300156 -0.24274612018196484
0.82545 -0.4111182666561893 0.7563246706336736 3.7321920076060224e-06 -5.166461032199098e-07 9.869955538292327e-06 -1.0866717904293157e-05 -0.2189199397935078 -0.11548443501002377
0.83786875 0.3853692825398039 0.7669638924597254 4.7014712329790376e-06 -5.419607737507049e-06 2.6451020258319356e-05 -3.0837950823393533e-05 -0.20155477007083225 0.1444737049594284
0.8502875 0.8335411925265317 0.14718089337623844 1.536424690571267e-05 -4.89852357868722e-05 3.4794664012348055e-05 -5.720256467325731e-06 0.03313569824989091 0.2453540619144639
0.86270625 0.6389383886260713 -0.5759340339474128 3.5008513423212976e-05 2.6296330656320604e-06 1.6935010972495793e-06 -2.7141837931725382e-05 0.23279957324911557 0.08992836075220849
0.875125 -0.0836268717668923 -0.8868740762291495 4.851091249999604e-07 3.7141163545247682e-06 1.0328086981577975e-05 -7.981103121313047e-06 0.19372332630351227 -0.16389690015318092
0.88754375 -0.7757338914832949 -0.44758815066129615 1.2216359486157347e-05 -1.970687056573783e-05 -1.0934357582880082e-05 -1.1649000010872843e-05 -0.054690656493973706 -0.2514764251431472
0.8999625 -0.8036085810536111 0.3425350127326955 1.87269626492458e-05 1.3620570438894605e-05 -3.7480683020799897e-06 -2.9494348036376248e-05 -0.25049867594185743 -0.06624307377686059
0.91238125 -0.23243583747033064 0.8439428800046492 2.2017031411769396e-06 -9.461930509241309e-07 -1.3402908061973714e-06 -3.2583637255250816e-05 -0.17167813632320486 0.19500918385802474
0.9248 0.5589095020330758 0.7255131786315785 2.337663657132291e-05 -2.2300506617490885e-05 -1.2438220287542461e-05 -1.535992286544278e-05 0.0979754704111108 0.24112412875498856
0.93721875 0.9450882362624405 -0.0623629606771724 1.170951446755038e-05 -1.9435011006989787e-06 -5.716638609152656e-06 -1.1989388998072323e-05 0.26214786414686836 0.020189831362269754
0.9496375 0.4643409813842557 -0.8027447693530978 2.7659516911808744e-05 -1.3652474202452566e-05 1.705026816629718e-05 -3.473556788471251e-05 0.1362959602216221 -0.22895079667398704
0.96205625 -0.34830177888441605 -0.8272822443339017 -2.0532772841294562e-07 -2.2474669779606694e-05 -7.839809657189549e-06 1.2611273794046137e-05 -0.14356278443434933 -0.22613014039512033
0.974475 -0.8736301528546025 -0.24909193171354024 -7.889254577285476e-06 2.315797090093701e-05 -1.5653935713231705e-05 -1.7352121392558294e-05 -0.26718169677022346 0.021760952892150725
0.98689375 -0.7553232304254123 0.5709551062470104 -9.000731745278586e-06 -2.526548879320467e-06 -5.827099375556823e-07 -2.0689508654079734e-05 -0.10752238526381079 0.2452244139748726
0.9993125 0.0339119974368224 0.9617130730810323 1.4172982775787002e-05 4.708661060774212e-06 -2.5061786035163337e-06 -2.0365271505658145e-05 0.16446996594234153 0.2137072129282975
1.01173125 0.7863105375976416 0.5282309180363723 -6.132788025100667e-06 -9.587557090911533e-06 4.8308188651988915e-06 -7.399539317682642e-06 0.26957110712596305 -0.04490057226262686
1.02415 0.8960867671682314 -0.3065840904346609 1.572421349675345e-05 -3.203959218763974e-05 3.660310723403437e-06 -2.1863997240594628e-05 0.08373557982481174 -0.2641929550718347
1.03656875 0.28506032978540014 -0.9287655859569967 1.4138186397136945e-05 1.0400675087411178e-05 -4.0258812781329227e-08 -3.936698464357937e-05 -0.20153834062085324 -0.19203768375686806
1.0489875 -0.6114783413581293 -0.7629512121649963 -1.953568927660803e-06 2.88122971244038e-05 -1.018859006101111e-05 -2.817207135401871e-05 -0.25854542791182333 0.09698775985098006
1.06140625 -0.9506609132358013 0.05320220934664022 9.485669954138003e-06 -1.0511101102125422e-05 -2.0245108950535643e-06 -1.661473153372008e-06 -0.028939849725574767 0.2717789712305275
1.073825 -0.5387400432186953 0.7724228464481165 -3.719224118196633e-05 -9.726854002435532e-06 1.4246926496813123e-05 -1.0910462049673288e-05 0.22852866190860818 0.15177569615003036
1.08624375 0.2823970891137353 0.9300253406178128 -1.66527385038012e-05 4.598656626686927e-06 5.2934249409224064e-06 -2.5766150760523687e-05 0.24492492319577375 -0.13524612990907078
1.0986625 0.9587205968262265 0.3263897010311314 -7.797914776040958e-06 -3.3678966494884703e-06 -2.803900944750858e-05 1.338139548469358e-07 -0.011061550576945432 -0.28651445646132245
1.11108125 0.808748446641051 -0.6079673376971122 1.1129733511171576e-05 -5.969713640886381e-06 4.9963181174181364e-06 -1.6519293494099357e-05 -0.26312257104250764 -0.11775208593523744
1.1235 -0.022184798521591133 -0.9858954479359593 -1.0686335106845892e-05 5.540748976892203e-06 -1.822063815762742e-05 7.588017803564375e-06 -0.2214078790766518 0.179192613782694
1.13591875 -0.7895188949489935 -0.5677187483552176 -1.4067147695379895e-05 -1.124599609493528e-05 3.944454974632629e-05 -2.3796857790101157e-05 0.05412183866648485 0.2763199887874086
1.1483375 -0.9341100282981799 0.3028068212065371 1.553162962393269e-05 6.357557056705508e-06 1.0631808797134647e-05 -3.512595093573399e-05 0.2698566349964175 0.0829512793023721
1.16075625 -0.30039273956241985 0.9457496948727832 1.32150408875743e-07 -9.31834232791682e-06 2.2526187508260943e-05 -1.2571428451487439e-05 0.2010912837419796 -0.2035326758644269
1.173175 0.5835818861931066 0.8039229068407849 -9.295269653867884e-06 2.3833201457594073e-07 -6.0597791744334946e-06 -3.7941779859915924e-05 -0.09213115350527107 -0.27392279429726446
1.18559375 1.005888918473388 0.01757714994398968 7.562369116301141e-06 -3.194048966621964e-05 1.5250468717310222e-05 -2.158515813862757e-05 -0.28565524757921823 -0.04094092399578214
1.1980125 0.6334975217065759 -0.8355125762249254 3.110386240017747e-06 -3.570217043780382e-06 7.953009595111628e-06 -1.291085944867935e-05 -0.17067557785935306 0.23800609193998318
1.21043125 -0.3052757757728654 -0.991736991634983 1.1252640637429145e-05 -5.063870208079925e-06 -2.229741142316982e-05 -3.9192039353322914e-05 0.13482291076559566 0.2603777677939506
1.22285 -0.9583720043933561 -0.33893619595341307 1.043091962162551e-05 -1.802145509330909e-05 -1.2294918156638224e-05 -1.5233858499377598e-05 0.29601131268979763 -0.005705031781710833
1.23526875 -0.8474500223474886 0.5600844282420752 8.373232586578135e-06 -4.9541507201327765e-06 5.008124852550082e-06 -3.3292739753640294e-05 0.12429497894183533 -0.27039203712390636
1.2476875 -0.043207231484904074 1.0366365685514116 -9.151219889405072e-08 -2.6319016863457516e-05 2.7653812586389024e-06 -1.1584730340379737e-05 -0.18604923773869142 -0.23052188924885458
1.26010625 0.8328823880043222 0.6342351246794974 -8.512344671277951e-06 -4.137389444512358e-06 1.6333399478526845e-05 1.9310680793372334e-06 -0.2895661602953697 0.05706488429124551
1.272525 0.9928172854839324 -0.2962407221375093 6.030374452636086e-06 -1.3350459571011283e-05 3.158200581843863e-05 -2.7964437966406253e-05 -0.08905974526378538 0.2843530334373598
1.28494375 0.3759743752332102 -0.9660365216571491 1.4110492602785147e-05 -3.4046045294161256e-05 -1.1219079689335928e-06 -1.9269960252455115e-05 0.21127049481290336 0.21752703542030968
1.2973625 -0.5489600558227454 -0.9089843137094312 -4.420032174557873e-06 -1.6568055330448805e-05 2.857741169648152e-05 -1.958625559487248e-05 0.2931345003911885 -0.08704782421653176
1.30978125 -1.0752346133407835 -0.08683596596207104 3.5883551163766565e-05 9.662181470821983e-06 -2.3662079275602153e-05 -3.6306212678152176e-05 0.05529038005209361 -0.29911679219196685
1.3222 -0.6792785637730465 0.8149338676922542 -9.934889381248662e-06 -1.5557177320597344e-05 -1.0485601992971636e-05 -9.871957462066214e-06 -0.24073119579173158 -0.18053060557082826
1.33461875 0.25012980647573246 1.0081923717875025 2.352755289870008e-05 1.7461814832477234e-06 1.500987428510811e-05 -1.4351189059862667e-05 -0.2662227650603711 0.13647135076261077
1.3470375 0.9641207662076247 0.4043280354212734 -7.050366594398701e-06 -1.2254002523152421e-05 -1.055548970276106e-06 -3.5257113895759806e-05 0.006771184365488319 0.3000029412854217
1.35945625 0.9138985333289463 -0.559673561878354 7.861239540119058e-06 -1.1641876800907225e-06 6.593604808219264e-06 1.3721166329371201e-06 0.27474231303089824 0.12782950742218496
1.371875 0.07662111649016351 -1.0809058839667698 2.508750891677009e-05 -1.255198015460294e-05 5.2862756391247645e-06 -5.382292637756858e-05 0.24215662402629906 -0.18908716433419
1.38429375 -0.8189191818234005 -0.7058205008472324 7.265262542208689e-06 -4.1989695173105394e-05 1.3363798658782204e-05 -3.8897417422385445e-05 -0.05570039361683872 -0.3058830056706461
1.3967125 -1.0611746686056327 0.22298994581084844 1.1728077309936031e-05 -6.399179470736434e-06 9.608761257069997e-06 -1.343898302966738e-05 -0.2965370008632329 -0.09461029819529661
1.40913125 -0.4550216031694937 0.9870181577333509 1.2600557735861906e-05 4.7045473234799825e-06 -2.3752983888627094e-05 -1.69477259005405e-05 -0.2218590011387614 0.2150667324972088
1.42155 0.5258925134042649 0.9361272263252681 -2.0496825623399127e-05 -1.6326739439128213e-05 4.768008903180151e-06 4.294017495793054e-06 0.08453066605289358 0.29418778984398464
1.43396875 1.0538361038281485 0.1280275706758351 5.219121729058385e-06 -1.5959079753895424e-05 1.1709629390920965e-05 -3.6274002450625056e-05 0.30006852684119806 0.06034424134409792
1.4463875 0.7348347822845783 -0.7816327406456768 -4.772606863862662e-06 4.162375384600925e-07 1.805962415919184e-06 -2.7553661926743904e-05 0.18956011513716176 -0.24238735851073595
1.45880625 -0.21795363388175706 -1.0776681059800928 -1.0990701563914842e-06 1.5430174857875073e-05 -7.610677445117084e-06 -3.141753045201326e-05 -0.1345890511570699 -0.27893477835336616
