!Created with skrf (http://scikit-rf.org).
# GHz S RI R 50.0 
!freq ReS11 ImS11 ReS21 ImS21 ReS12 ImS12 ReS22 ImS22
0.13 0.061496367701861815 0.17525359455486117 5.246404721434229e-06 -1.8978203256347693e-05 5.064669707780865e-06 -2.1815319523568486e-05 0.035426395529789205 -0.040975749570405166
0.14241875 0.19138689623078053 0.05865198554060919 1.3585796947073301e-06 4.3184884833264365e-07 1.4895835042050149e-05 -2.4404791800724734e-05 -0.022282437111281618 -0.05390887617466305
0.1548375 0.17287870848622297 -0.12568478762437799 2.4217366739106364e-05 -9.483730987179389e-06 2.7523615467489735e-05 -2.3717499247706723e-05 -0.06180110664155249 -0.0047960262598942946
0.16725625 0.00036128314109675413 -0.2303998021906687 1.8437787096146535e-06 -2.068461828404487e-05 1.3533713189176318e-05 -7.300191623657419e-06 -0.03528822296140396 0.0560469154818906
0.179675 -0.2016704403601601 -0.14112921658722175 6.391718914155624e-06 -2.0604538195042865e-05 3.5215699880974675e-05 -4.1817673403334014e-05 0.037300295851801384 0.06097580963352465
0.19209375 -0.2429585504504172 0.08760520452673982 2.868772707281812e-05 -4.7992340002990827e-05 2.0586966384355086e-05 -1.86819602632113e-05 0.07582569952616587 -0.007605873958159455
0.2045125 -0.07724440771488521 0.2607727501570232 -2.2378928063282414e-05 -2.6567007439349577e-05 8.464354907255598e-06 -2.100772152365021e-05 0.02791518057344733 -0.07544556897510404
0.21693125 0.17522398679602144 0.2325795671978074 1.0476895515525068e-05 2.439857137965857e-06 1.8048387536051454e-05 -2.3844304325374973e-05 -0.05673173866920436 -0.062081564625688174
0.22935 0.3108834248023152 -0.006849104248647123 5.054596530680118e-06 -1.3037327444391472e-05 3.6996578556598772e-06 -1.2628827639034079e-05 -0.08604498717860518 0.022202684687024285
0.24176875 0.1830530335714014 -0.2640235668481156 -1.7701896390123924e-05 -2.891783822125383e-05 -3.0161161360658235e-05 -9.306703325799976e-06 -0.021693801504577986 0.09109961679238253
0.2541875 -0.10938203778245346 -0.3183734573357408 -2.937116314494655e-06 -3.0568651818793835e-05 7.398883664897031e-06 1.7563205045461578e-06 0.07477321223717856 0.06394174578174296
0.26660625 -0.33356135093523703 -0.10742605680516293 1.7420171855269144e-05 2.4037527032542893e-06 2.3875706996881077e-05 2.729251732246563e-05 0.09367483297682197 -0.0399964698534766
0.279025 -0.29538398940119626 0.2175769806354169 -4.137083571005116e-06 -2.7981952160182353e-05 1.751936464321758e-05 -2.049414315140801e-05 0.006309157243224061 -0.10443912235918548
0.29144375 0.007354347819356581 0.38112411850952244 -9.20844247928421e-06 -2.6213801260636435e-05 2.92968919713425e-05 -2.4498040239539706e-05 -0.09340303030035138 -0.05507006655203616
0.3038625 0.32360455299255975 0.2263274131371848 -4.968814269449334e-06 4.642368893867071e-06 1.6587189560607207e-05 -2.0704775523959443e-05 -0.09600347122359902 0.060848560941559604
0.31628125 0.3906000090124694 -0.1325908365713557 7.41680423800414e-06 -1.3554089348029618e-05 -1.0776859899739286e-05 -2.394117450455151e-05 0.011651081867623838 0.11862705700377908
0.3287 0.12539409285711192 -0.4087498129104472 -1.7358068927185125e-05 -8.97831566300713e-07 1.1354435822077029e-05 -4.0877832257106407e-05 0.115265357626616 0.04407725077391811
0.34111875 -0.2580375799488224 -0.3474281016639372 -4.05776421622018e-06 -1.0035438609599115e-05 5.269114044237678e-06 -1.930613806065949e-05 0.0936186033363252 -0.08357500043587181
0.3535375 -0.43905630857406575 -0.006346345742096079 -2.476957468573608e-05 -3.400943349485833e-05 1.4180271431268473e-05 1.4905192431983236e-05 -0.030376850792596246 -0.1240666670509228
0.36595625 -0.2817406443060268 0.3624926723031852 -1.5033361358887744e-05 -9.614813345226105e-06 9.9019802713534e-06 -1.3556859029187507e-05 -0.12815760390891234 -0.031600845532885086
0.378375 0.14832479333728094 0.47121015697878593 3.1899568565917526e-06 1.0960933927746358e-05 1.1623508994626592e-05 -1.0249755281895687e-05 -0.0910010728270966 0.10506030108469633
0.39079375 0.48318528395709454 0.14106801183898762 1.1733478330540503e-05 -3.5732933860674324e-06 2.179517722466992e-05 -2.4473118217469116e-05 0.056913882522045774 0.13209801429813606
0.4032125 0.39695661119945785 -0.3049181316022493 -2.700698382515937e-05 -2.027050773444393e-05 2.3660755072181053e-05 -2.5432085540873043e-05 0.14613628625643574 0.008130810083482036
0.41563125 0.00830036349883557 -0.5114988193350035 6.372603218966424e-06 -3.190081871685719e-05 2.8359559278810005e-05 -8.576920350811074e-06 0.07655452918459248 -0.12728033456703408
0.42805 -0.42303731438949993 -0.3361225184574428 5.038000237669817e-06 -2.1073370946890134e-05 1.285263677955706e-05 -1.2333985270446647e-05 -0.07752255445902462 -0.13099378098496883
0.44046875 -0.5384334357361386 0.15861318697630153 3.0956944782511863e-06 1.6557929243415143e-05 3.64668766646158e-05 2.0193781218329547e-06 -0.15696199717082113 0.008290414553934339
0.4528875 -0.17821747157711845 0.5270177083192625 1.974348903586592e-05 -1.661038379661019e-05 5.853900275618479e-08 -1.3009513341279898e-05 -0.06385335195432855 0.147733211561315
0.46530625 0.31098518941898073 0.454474811883504 -1.843557514339663e-05 7.677528701072566e-06 -7.5662477538926e-06 -2.3782058902842985e-05 0.10574285910681067 0.12319542111504919
0.477725 0.568020086976868 0.0264167467271043 7.223532096792982e-06 -2.436183713479501e-05 8.454836218049812e-06 -1.853235158469386e-05 0.15865795745547728 -0.040114122718745836
0.49014375 0.3656010789087863 -0.4724797133513971 4.978343979156841e-06 -1.455479869304586e-05 -3.470620009283845e-06 -2.637587170644469e-05 0.03742854999294599 -0.162931526183894
0.5025625 -0.18833046380014765 -0.5785476901537853 2.5094862086242793e-05 -1.5521483239238422e-05 -8.701649569777953e-06 -4.7046576988447e-06 -0.13112262467199853 -0.11155711080925468
0.51498125 -0.5719857996335495 -0.1882668005158682 8.660709349776814e-06 -2.18509481561279e-05 1.956215535432976e-05 -3.4654494812190295e-07 -0.16340529669026319 0.06612372024065903
0.5274 -0.5039538746775181 0.3331646556210768 6.607726655503295e-06 3.4210347165819037e-06 1.9553469630655816e-05 -3.491244070373582e-05 -0.018387381558534283 0.17881326263291664
0.53981875 -0.049068061790488574 0.6234688391172177 -2.312837262306309e-06 -2.1776643396737715e-05 3.370081506161758e-05 -1.9740400263101413e-06 0.1514819642591056 0.10078436846125183
0.5522375 0.49363654392134765 0.41740334483687275 2.6200750272029523e-06 -2.2140738259242048e-06 1.9854225616830943e-05 -3.904175386812238e-05 0.1609685166716964 -0.0893518774294298
0.56465625 0.628637305993439 -0.16536890998796516 4.592454829009294e-06 -2.766351397383972e-05 1.9366372316558074e-05 -1.666414123897592e-05 -0.00727294070750745 -0.1864044955453449
0.577075 0.23805637566782475 -0.6109275968614094 1.581331351515183e-05 -3.394800928235995e-05 -1.2900199059100573e-05 -4.1198048900468657e-05 -0.17416805351643672 -0.07760153262750473
0.58949375 -0.3656873708984955 -0.5656385943333739 5.622261846906768e-06 6.535761338761075e-06 1.2381621557679383e-05 -1.6472988067079622e-05 -0.14890177626212955 0.1262988343161284
0.6019125 -0.682710498651 -0.030927076976680633 -2.7118305329942516e-05 7.767262053409044e-07 -6.1489557104623135e-06 9.062791535128656e-06 0.04843126456790835 0.19201490814965058
0.61433125 -0.4355302867350251 0.5271678032370479 8.728192001142998e-06 -2.9209751204615962e-05 1.980396726775926e-05 -2.032094389980062e-06 0.19374833404276054 0.044459102797353336
0.62675 0.1501046366983873 0.6819169674135044 2.816476866126345e-05 4.311633012579695e-06 -2.5391361883666972e-05 -5.993490652780048e-06 0.13140180080599828 -0.15063078537397764
0.63916875 0.6631337327031197 0.2960726722186079 9.006595232300923e-06 -3.419997472980088e-05 1.3935867748278793e-05 2.3967515597016467e-05 -0.07181230647537674 -0.19040685558867915
0.6515875 0.6265747995953936 -0.38361306181875615 -7.368610285710672e-06 -2.207746421521904e-05 -1.0159601739445985e-05 -1.393149348438838e-05 -0.2064367151870995 -0.024176547713722383
0.66400625 0.04837240593216656 -0.7155910495688413 2.6626330035678887e-06 -2.1479045781577735e-06 6.455783864370223e-06 -3.511277650820186e-05 -0.11508940400215287 0.17650996026174784
0.676425 -0.5397662987015065 -0.4707644768111264 -2.5300031140502325e-05 3.841091625976518e-06 1.2194930981114195e-05 -9.271949533945359e-07 0.10670938324224077 0.18196415895262485
0.68884375 -0.7298199587111683 0.15731356347182704 4.506824625835193e-06 -1.1407017498491594e-05 2.662600582768925e-05 -1.72859691434881e-05 0.21207483352049206 -0.01192735002069065
0.7012625 -0.2968213262151928 0.7181128366265026 -5.793597984622949e-06 -1.2150794319039221e-05 3.473232257313319e-05 -1.8337098377537264e-05 0.08862961521356506 -0.1976854532944311
0.71368125 0.41803859738892873 0.6506935465731988 6.210380331200966e-05 -2.0670237338158424e-05 2.286756923201365e-05 -1.856818366317421e-05 -0.1406555673020155 -0.1726817897009368
0.7261 0.7588649790096532 0.05996474119033005 -3.780527019254887e-06 5.5176076496003325e-06 -1.9087642703274368e-05 -2.5707390756187552e-05 -0.21985507245816918 0.05116819834245161
0.73851875 0.5307055547030713 -0.5808308190253414 1.6688593442266265e-05 -1.5089431209936279e-05 2.1437670429918875e-05 -4.22695264158805e-05 -0.053188131762264446 0.22074874672047662
0.7509375 -0.15724966033807114 -0.7894222510183098 -1.8128879828640793e-05 -5.640009753370697e-06 1.8597553806667546e-06 -2.2989101674433693e-05 0.16935675827756402 0.14702711553436382
0.76335625 -0.7388106443701272 -0.32845697243018335 1.8064323908844975e-05 -2.4797576322245088e-05 -5.412682531363716e-06 -1.8988594059098495e-05 0.21103933382049686 -0.08155564964276238
0.775775 -0.6983448730849364 0.4067524262644722 3.6725858470068536e-05 1.3315389666244312e-06 -3.586018783431787e-06 -2.5044881870709645e-05 0.024448886151386708 -0.23200697126755665
0.78819375 -0.08230037142831341 0.8201301750123801 1.0736056159493248e-05 -2.766354093400476e-05 1.0002691561237963e-05 -1.8425173896923239e-06 -0.20267834137012566 -0.1274173328086211
0.8006125 0.6357676440047133 0.5489463381150722 1.301333075512341e-05 -1.2172501758354754e-05 1.3924728144098862e-05 -3.7831975572018207e-05 -0.20463080890760907 0.12558990204221823
0.81303125 0.8101279054413641 -0.19493997592032128 9.191322915717033e-06 -8.240796399555746e-06 1.3200788034029631e-05 -3.178980043380392e-05 0.01602502068628798 0.23682416473858373
0.82545 0.3364048174987 -0.7526755851569572 -5.7485883242781266e-06 3.879753124880607e-06 1.5179798516157491e-05 -7.501937405746347e-06 0.2154961226878865 0.09897121996179292
0.83786875 -0.3916902249867421 -0.7412888300882753 8.268858239673244e-06 -4.78399223096234e-06 1.213167158625603e-05 -1.2665992855651577e-05 0.19107983891160507 -0.14579454199209477
0.8502875 -0.8511465636923271 -0.12530693296944967 2.1899138074888933e-05 -2.0879619935125964e-05 1.20394238304152e-05 -1.548142794716117e-05 -0.04476648972563067 -0.2399857408790559
0.86270625 -0.5914234679493945 0.6240818727911979 4.5757342808540836e-06 -3.697457242763473e-05 1.496676369362463e-05 -2.542635746007069e-05 -0.23907138119727106 -0.0656338365302053
0.875125 0.1488729544236501 0.8349766399908778 -1.187469296449098e-06 1.0833587019281225e-06 -6.634992139463613e-06 -9.921179566088272e-06 -0.16489681868728834 0.18802878485993102
0.88754375 0.7668895515872102 0.3953379852617329 8.232665184441759e-07 -9.061233446518327e-06 -8.895764813493446e-06 1.9289273306533818e-07 0.0952298314015502 0.2328180043817155
0.8999625 0.8028263226842116 -0.4089225642684218 2.424429120103123e-05 -8.089517755900096e-06 1.2915932752113092e-05 -1.994381755547999e-05 0.2529679494703454 0.021985203353226575
0.91238125 0.11068710637113706 -0.9030009697750405 -1.3183511393958778e-05 -1.5053604516763758e-05 2.3229115126670764e-05 -2.2785199662573092e-05 0.13881433277260197 -0.21650791492214527
0.9248 -0.6426947981559576 -0.6001423112693605 1.9475612977491447e-05 -9.339559509947721e-06 -1.2032150495885947e-05 -5.505176848351245e-06 -0.1268318857504633 -0.22578807882484825
0.93721875 -0.8575039090804254 0.11789227774304213 -1.1954019897648581e-05 -1.4329374943535583e-05 -2.809536803864398e-06 -3.062179195257907e-05 -0.2589630442271868 0.005332655305090211
0.9496375 -0.4633329473816054 0.770282594196704 6.194157747998706e-06 -2.9170557064656018e-05 1.0572473906611224e-05 -6.306807516367737e-06 -0.11715786335416745 0.23129802428110338
0.96205625 0.37503937838240475 0.8652726086769749 2.0310503632342177e-06 -1.48481088454112e-05 1.6749229237405305e-05 -3.357942265234663e-05 0.15103332230050798 0.21224553700975807
0.974475 0.9273528192331025 0.17069782770758837 3.7202684190938755e-06 -4.9327634055208776e-06 -1.5041598862309232e-05 -9.178053307255832e-06 0.2609395357238562 -0.040531297276434904
0.98689375 0.6608289671080232 -0.631915750003044 -7.704275091083005e-06 -1.821224208995565e-05 2.5227670823723756e-06 -1.1321010871275469e-05 0.07913011587057067 -0.2547792845297793
0.9993125 -0.09675073893132768 -0.9068407459016236 -1.6579275431033234e-05 -2.6734749850255834e-05 -8.740318242849102e-06 -3.1491556280881216e-05 -0.19547015861581454 -0.18272785794515278
1.01173125 -0.8062621580506961 -0.4767034086313736 1.3544011467983246e-05 -2.021480484274945e-05 4.615064097838892e-06 -1.3715241358512523e-05 -0.25018155894069843 0.0926458127990575
1.02415 -0.8667841461462694 0.3832295205554818 1.3852304488903502e-06 -6.5654029741908076e-06 -5.645634123702084e-06 -6.026135096369813e-06 -0.03429777315574603 0.2644169602792995
1.03656875 -0.2091954526163542 0.9117954919568341 -4.684138805218872e-06 -2.990428161290662e-05 4.155104081998198e-06 -4.628335824819789e-06 0.21741277046997445 0.15803890148168243
1.0489875 0.5889882767161826 0.7326354986402319 5.522757903601101e-06 -4.981583818732818e-06 3.340190512790761e-05 -3.006348856462876e-06 0.24722230513985488 -0.11757779799579503
1.06140625 0.9741565889555482 -0.027629818796005918 -6.352885054177594e-06 -2.4523395871446022e-05 1.1236413219098035e-05 -2.9105664885502358e-05 0.011388912384481644 -0.2796601621589775
1.073825 0.5413972251733501 -0.8367350937162183 -2.808312643145667e-06 2.205834707954427e-06 2.9559946901080084e-05 -1.7311172677015777e-05 -0.2456503178496203 -0.1376147919538272
1.08624375 -0.3707089265460038 -0.8966991662969263 2.5028473409960032e-05 -2.171351826398944e-05 8.303617886076297e-06 -3.3644318431390196e-06 -0.2310744663635948 0.15376178435314158
1.0986625 -0.9098883633192013 -0.2404825136562428 1.6402785879844937e-05 -6.578424468601045e-06 1.033814880529664e-05 -3.091147652800601e-05 0.027615631915330018 0.27294429492019484
1.11108125 -0.7616309978280444 0.5700319787885533 -1.2270418320783508e-05 1.4076690071949397e-05 1.4518380304125803e-05 -3.0057810822892843e-05 0.2545013459087274 0.10520960635102145
1.1235 -0.001891009673017626 0.9905987810118357 -9.051146992752362e-06 2.6078337731647065e-05 1.6215795306226854e-05 -1.9341911727294578e-06 0.21546916713281106 -0.1800005020285967
1.13591875 0.8136844885292707 0.590498593795896 -4.771349603469856e-06 -6.496147956865127e-06 2.0808725856872625e-05 -1.0946188975916063e-05 -0.06504606526631206 -0.27828093915927954
1.1483375 0.9509902062796652 -0.29920465431023274 5.730714400626708e-06 -5.099786097633957e-06 -8.716510789722829e-07 -2.4435401200347134e-05 -0.2785443269774134 -0.06619006991553485
1.16075625 0.33537853721641875 -0.9373202194316199 -1.7219667138953722e-05 -2.6815149144493085e-05 7.261733814201414e-06 -3.390228100723808e-05 -0.18475619322288372 0.21590407965205735
1.173175 -0.5562649571482957 -0.828102247605477 -3.29254577532879e-05 -5.237893362839523e-06 1.5699093640077127e-05 -1.1424875820911686e-05 0.1041714391629343 0.26334828891126044
1.18559375 -0.9873623853131553 -0.033940285129483556 -1.4607967993679937e-05 -5.6692657360954685e-06 3.0171636376046616e-05 -9.86422920749655e-06 0.28337629105508344 0.03194788088269687
1.1980125 -0.6267331143477297 0.7854903374567416 7.044104825846457e-06 -1.0614942975259833e-05 1.3206083625084762e-05 -3.231139278445256e-05 0.16723399755024393 -0.24169960020101985
1.21043125 0.24530998178025987 0.9841704364385019 1.1690119305105495e-05 -3.454627610992753e-05 4.094065234843501e-05 -3.201107286181083e-05 -0.13614079706353063 -0.2615675762012844
1.22285 0.9626327748200004 0.40108270740283686 1.2332159573395877e-05 -4.5335211674621085e-07 -1.0147627956956117e-05 -5.803519105974851e-06 -0.29446980420148006 -0.0048588438797290984
1.23526875 0.8977242368555819 -0.5454016399413706 9.194611718930078e-06 -1.1808341218920889e-05 2.6587303794464108e-05 4.803088083028344e-06 -0.14726278823813027 0.2556297982315772
1.2476875 0.10615375416226439 -1.0302511348026504 1.811093468364455e-05 -2.7875910026222815e-05 -1.0568581861457063e-05 -9.77484284128058e-06 0.155938650204442 0.25444927938595324
1.26010625 -0.7400483646404726 -0.7183709107513017 3.110529910977739e-05 8.308506676833057e-06 -4.057569530866331e-06 -3.645221272051813e-05 0.3009339891591053 -0.022692076593622743
1.272525 -1.036896509142036 0.15612175254207905 1.739173630730555e-05 -3.0273329047186786e-05 -3.5331758918581407e-06 -1.548194017742587e-05 0.1120272442800538 -0.2794690185490072
1.28494375 -0.47705901024973396 0.945825903197246 1.3311027562907899e-05 2.064558978228215e-06 1.5502221472741352e-05 -7.965122483436968e-06 -0.1989921785167036 -0.22215795277891204
1.2973625 0.48736646492197766 0.9246477797271372 -1.9982717236033172e-05 1.1215927687774813e-05 -3.7073316260575955e-06 -1.8033245835385477e-05 -0.287864740729604 0.07612433553275175
1.30978125 1.023345697922258 0.16727124973527713 1.085322829092015e-05 -5.088896921993941e-06 3.351312721576082e-05 -4.078950605930111e-06 -0.06667909230875016 0.2935632321128136
1.3222 0.7744433978519718 -0.7218840708198667 -3.6238964419257925e-06 -2.0969893982112735e-05 2.5899046479649526e-05 3.8738312248641175e-07 0.23044696992585653 0.20111195427962406
1.33461875 -0.11792117326018145 -1.084243567773343 1.038130157752064e-05 -8.07889506954394e-06 1.8331176321965324e-05 -3.063579922364379e-05 0.2903938436952141 -0.10730629755189001
1.3470375 -0.9462663876812293 -0.5483935405944447 -1.0873089743641438e-05 -2.153162434389752e-05 -4.506937810326661e-06 -3.68723097396676e-05 0.04626678408246749 -0.3071427331751468
1.35945625 -0.9935713851528819 0.41695769593901577 3.135094431577878e-05 -1.9663134109997814e-05 1.95278632381707e-05 -2.9969525259544116e-05 -0.24709328229771893 -0.1870977242081361
1.371875 -0.27092576315115785 1.0376634860806253 -5.692971893121399e-06 -2.7807137179217204e-05 8.977216898582527e-06 -6.706466209512221e-06 -0.2787781232328377 0.13004265474138443
1.38429375 0.6814070550657826 0.8358016683154434 8.178735951538284e-06 3.2239444057632853e-06 -4.478537347642109e-06 -5.32812018024255e-05 -0.01197515437353187 0.3047880315315559
1.3967125 1.076276149980446 -0.07096660814890357 7.865330446592834e-06 4.070947173872063e-06 2.0221758391424125e-05 5.882514529960862e-06 0.2672150750721746 0.147721077224091
1.40913125 0.5772893740958057 -0.9104717957469627 -1.0898059564500755e-05 -1.34805180658492e-05 -5.48913184238212e-06 1.249810844174227e-05 0.2543017876722171 -0.17530058292158315
1.42155 -0.3843930925838016 -1.0230000659822682 1.6678796572713436e-05 5.7096026745549155e-06 -1.70565878060789e-05 -1.6715806542784872e-05 -0.043862051283605916 -0.30903660419391676
1.43396875 -1.0698856610897176 -0.3086802030600227 -1.56203531848547e-05 -3.265702650657177e-05 9.324341085272352e-06 -4.983146848113625e-06 -0.29752415889648226 -0.10253654892179957
1.4463875 -0.8780032110282242 0.6721951624058337 3.080102886546122e-05 -1.3708469526484283e-05 -1.0458772391439885e-05 -1.1264832426725628e-05 -0.22962192319752203 0.21400886450229364
1.45880625 -0.0022075925569422627 1.0793434455211666 -1.2844294212302244e-05 1.7230648814512859e-06 2.9781955997422848e-05 -4.289615843822837e-05 0.07809081237308695 0.30280626655010684
1.471225 0.8433413876025206 0.6640912313392655 1.2937171725206786e-05 -1.8364052996375032e-05 8.42048843441923e-06 -3.356792161082083e-05 0.3027114531701274 0.0754854025906713
