!Created with skrf (http://scikit-rf.org).
# GHz S RI R 50.0 
!freq ReS11 ImS11 ReS21 ImS21 ReS12 ImS12 ReS22 ImS22
0.13 0.06141138601063346 0.17520254846318808 2.3450517621669078e-06 -1.1316832673973834e-05 2.4007830336062127e-05 -8.056575000431462e-06 0.0354292079598514 -0.04092539702009207
0.14241875 0.19125662386271877 0.05879040782034404 1.0497834248236876e-05 -3.7813920151338294e-05 -2.3780636433614156e-05 -1.20556370461466e-05 -0.022285472533244442 -0.053874597442008995
0.1548375 0.17284819323968686 -0.12575268889824162 1.9840903518331122e-05 -3.6730967952435562e-06 2.3660152806449057e-05 2.3828510322351908e-05 -0.06173638777465149 -0.004816410683103262
0.16725625 0.0001570796787674917 -0.23040003190317015 9.060469623327711e-06 -2.7440793833769843e-06 1.479626483279881e-05 -2.9978090935233905e-05 -0.035246770012605406 0.056023424310906775
0.179675 -0.20175219623379578 -0.14114545157556765 1.182416627802152e-06 -3.310324041741235e-06 1.0313974639763478e-06 -2.419054674868181e-05 0.0372109055537878 0.060927618061916135
0.19209375 -0.24294900355316498 0.08767663762624385 6.909866563651585e-06 -2.443039363068549e-05 2.8249970017459697e-05 6.653001343575051e-06 0.07575755429607359 -0.007558935799370804
0.2045125 -0.07718581100776606 0.2609014897675949 4.020832656201926e-06 -3.731079009506417e-06 2.134316396057051e-05 -2.5680166406747605e-05 0.027892676871353786 -0.07538474885595682
0.21693125 0.1752611105049471 0.23251337884623552 1.65525689448671e-05 -2.6149222332860998e-05 3.606948970720559e-06 -2.872834004553727e-05 -0.056706338742768814 -0.062104766203527006
0.22935 0.31090842360931903 -0.007095528779766042 -2.1186293372620827e-05 -1.627058825539274e-05 2.7389607803541042e-06 -3.7762788896608347e-05 -0.08595566778838912 0.022167136770783323
0.24176875 0.18270383304495583 -0.26415402274629946 -1.6097397264461512e-06 2.2095919493251953e-06 4.768474562743593e-05 -2.2288226428778102e-05 -0.021778966123164763 0.09104399369175986
0.2541875 -0.10945949300883172 -0.31810479250192136 -1.837505174852273e-05 -2.7512930347095775e-06 -3.6843739107616345e-06 -2.7766147730752752e-05 0.07473040413967806 0.06394484197490581
0.26660625 -0.3334015854183735 -0.10737460306376884 1.5224266554923786e-05 -2.495014341301486e-06 9.426404661820861e-06 -7.439757654731601e-07 0.09358555645320543 -0.039943265120492774
0.279025 -0.29547204173439334 0.2177661601578195 -3.2044321495260107e-06 -3.5349622735663495e-05 1.6306050928738507e-05 -5.630794047850149e-06 0.006405801501579479 -0.10438355489477115
0.29144375 0.0073759002826670654 0.3808947772931925 -3.4353770490135036e-07 1.0926786895203292e-06 3.679481290052515e-06 -2.106043484562119e-05 -0.09330915598854492 -0.05504901593395617
0.3038625 0.3235603792043301 0.22623082495814859 -4.0989505533576915e-07 -4.161734337862425e-06 9.136695102906583e-06 -1.950683265710488e-05 -0.09596021040398464 0.06080280220874508
0.31628125 0.39078562443330983 -0.13242361342789555 8.200656055056393e-06 6.440344101474682e-07 -3.0394737553395103e-06 -1.758809707515057e-05 0.011650214366536956 0.11853514867672826
0.3287 0.12570602302867934 -0.40857416771806687 2.5827249100803724e-05 1.153280646240093e-05 2.870174275873947e-08 -1.2757224339926427e-05 0.11522092012071848 0.044033247797151585
0.34111875 -0.2581012659744779 -0.3475138500847696 -1.4970116687723532e-05 -4.023160119905107e-05 2.407013278150045e-06 -2.178611207765225e-05 0.0934790740418732 -0.08361664289633339
0.3535375 -0.4394538576966111 -0.006292158495419877 4.2149832264114694e-07 -7.049163110430076e-06 5.325428723238265e-06 -9.22899822139082e-06 -0.030419141445440848 -0.12405630484148096
0.36595625 -0.2818061915178768 0.3625770065462762 7.526103370065899e-06 -1.3914475058634067e-05 -1.0137240905990838e-06 5.166249115000874e-06 -0.12815880891342635 -0.031564070280677196
0.378375 0.14822860996515713 0.47079251919353676 -1.3184516298160826e-05 -6.459473736297059e-06 3.610524817743126e-05 -2.2564485858705857e-05 -0.09094745096163125 0.10505627285791921
0.39079375 0.48302438638387196 0.14107464581913387 1.3639018590546304e-05 -2.5083232080707608e-05 4.866802474040545e-06 -2.4467068278119833e-05 0.05687143353628198 0.13192523014643331
0.4032125 0.3970398384837636 -0.30465938337139925 -3.1310079373937078e-06 2.3674258549779177e-06 2.596656814394306e-05 -1.5497048630359436e-06 0.146034854263345 0.008030605266523846
0.41563125 0.008368110971932817 -0.5113756288216048 7.526162931295082e-06 -5.882148988815811e-06 1.7638124017521153e-05 -2.7196848747655052e-05 0.07636212397246617 -0.12733359245054918
0.42805 -0.4235751634374567 -0.3359849250264904 7.223231272393069e-06 -4.162458914748325e-06 -3.5618958101109486e-06 -3.5013974427469945e-05 -0.07753290247821401 -0.1308280480693359
0.44046875 -0.5380910295189152 0.1589110892904641 -1.8052400072455022e-05 -2.6060345977072706e-05 8.609240267488966e-06 -3.229741142199757e-05 -0.1568877420553723 0.008393756058757904
0.4528875 -0.17802490231602455 0.5269217298522716 -7.317877233587717e-06 -6.025692001267053e-06 8.373090878801022e-06 -2.1509658208280862e-05 -0.06387536410178499 0.14759069285231427
0.46530625 0.3109008738650234 0.4547173514900484 2.254467302720765e-06 -1.2614659420802522e-05 1.8412263758411033e-05 -6.118462581796971e-06 0.10573389555919668 0.12303214937919235
0.477725 0.5683157703937022 0.025966984410680048 2.5815703186972503e-05 -4.31531779729473e-06 1.7498842107751055e-05 1.5520652712772426e-06 0.15858660256187343 -0.04011621281056925
0.49014375 0.36487587424275664 -0.47303998226732485 5.6727577247581695e-06 -1.5756016647403067e-05 -2.110748070907305e-05 -1.5874063543151024e-05 0.0374328096528475 -0.16279746616472035
0.5025625 -0.1888177837925149 -0.5780356904823709 1.4920603986298503e-05 -4.944135177343228e-05 3.726659079248872e-06 -2.919852194870179e-05 -0.13111011835376274 -0.1114540499113437
0.51498125 -0.571661962685422 -0.1872966679492755 2.57655109036447e-05 1.5103828399188506e-06 -5.90965791071185e-06 -4.642893773026633e-07 -0.16328825701504324 0.0661281863537572
0.5274 -0.5036155876423815 0.3337310433506447 -5.993607577993507e-06 -3.6410855004246546e-05 1.8507475192800825e-06 -2.1087903900118366e-05 -0.01827665462184056 0.17869423820620772
0.53981875 -0.04827217813549913 0.62368400979533 4.404049313631268e-06 -8.826374034969345e-06 2.312045047660132e-05 -1.1032726810839044e-05 0.1514992942657335 0.10066184581521385
0.5522375 0.49496399800507906 0.41630263956485913 2.6925118449408228e-05 -3.7514506123908104e-05 2.2368442670602726e-07 -1.9528553365926364e-05 0.1609203290856926 -0.0894543365239557
0.56465625 0.6286211456647652 -0.16662542017788934 2.4095914693018724e-05 -2.3011788678241066e-05 1.0436593720544135e-05 2.8833116225804967e-06 -0.007438452342036528 -0.186405599653139
0.577075 0.2373651776211951 -0.611000048279246 1.8870396508351923e-05 -1.3480514911147984e-05 2.9876840608591705e-07 -2.2471759030483173e-05 -0.1741653520022823 -0.07740117549453641
0.58949375 -0.3657748837256804 -0.5651821873587402 7.661923582953702e-06 -4.4809383429050924e-05 1.5399211229155098e-05 -1.1941826124445506e-05 -0.1487344416512572 0.1263662736784136
0.6019125 -0.6830016487658058 -0.030566991317182254 2.6874680155376434e-06 -1.4617041986692891e-05 -4.289549779771798e-06 5.849736078088865e-07 0.048448127572298494 0.191916230535322
0.61433125 -0.43539579968483794 0.5280306305176202 -1.0646152850940316e-05 5.251906377328243e-06 6.61877677727876e-06 -3.9256247355273056e-05 0.19362191985436186 0.04443009474716891
0.62675 0.15074189532965548 0.6819326530423255 4.65329690406839e-06 -1.1905819676693143e-05 2.5639087091964797e-05 -1.5491887769643946e-05 0.1312701113836634 -0.1505937797188413
0.63916875 0.663349817026654 0.2952881785118406 -2.1054351555058107e-06 -9.20936228411273e-07 3.0682367529049134e-05 -2.8232806054277493e-05 -0.07173568884511498 -0.19032159186175562
0.6515875 0.6260462545573146 -0.3839499334600175 5.543502056269202e-06 -2.0224619828463323e-05 1.167221636897176e-05 -2.7655146789705427e-05 -0.20634149938558086 -0.02413687575134066
0.66400625 0.04795167156276015 -0.715894639934427 8.093887429596092e-06 -2.5108311860511798e-05 3.490271116623117e-05 -2.2847511603591515e-05 -0.11489131350278396 0.17631122656274825
0.676425 -0.5405934073117076 -0.4708373241264784 -3.10946204975417e-06 -2.3544282021078877e-05 1.7599832299407092e-06 -1.3215201631967792e-05 0.10684202636356625 0.18180666882027277
0.68884375 -0.7297054121025867 0.15885137967575755 2.263512815070868e-05 -8.929140780405681e-06 3.426265174996967e-06 -6.812601435795096e-06 0.21169585116968762 -0.012007839756659635
0.7012625 -0.2947308411440072 0.7181817133882646 -1.7630904638282316e-05 -3.5595174003440296e-06 2.06684467010998e-05 -3.1272920180463396e-05 0.08853214414347119 -0.19772076501778463
0.71368125 0.4189208227270389 0.6497265288245943 6.818379929229533e-06 -1.5564984518575146e-05 2.8361984215658478e-05 -1.2067099807785893e-06 -0.14056939286392459 -0.17262405853576918
0.7261 0.7588897030454358 0.05886701325055051 2.4690818551801033e-05 -3.0304293924416645e-05 3.502355850189185e-05 -1.1726020791085276e-05 -0.2194149233930883 0.05147593140841112
0.73851875 0.5302816188107975 -0.5818786840620646 -3.773496755141598e-06 -5.106114613153458e-05 1.2212546424991364e-05 -2.0284346008364532e-05 -0.05302949869066429 0.22068490401073174
0.7509375 -0.1587382866574599 -0.7890308760909444 -8.262920742134024e-06 9.96265295550968e-07 -4.467286263887144e-06 -2.5860726618145057e-05 0.16934590875439018 0.1467951228534508
0.76335625 -0.7394078432279302 -0.32643089237616657 2.7090095419782396e-06 5.993862294992171e-07 1.2039731794360355e-05 -3.275196974799086e-05 0.21081089520475965 -0.08155410601251377
0.775775 -0.6973359014822921 0.4076943101620376 1.7166028745423954e-05 -9.930716871607511e-06 3.5066822962677605e-05 -5.059647721472849e-05 0.02457032968463127 -0.2317946668020518
0.78819375 -0.08115973452144205 0.8194465018631906 1.492760132744425e-05 -6.3682441566981796e-06 -9.166002589830626e-06 -2.163474658929102e-05 -0.2025397748626183 -0.12752296308284813
0.8006125 0.6365686143253946 0.5493728403360679 -6.114634990962279e-06 -7.2589514937640495e-06 1.2479561186612258e-05 -1.2437092625214659e-05 -0.20472377115629664 0.12526298045499767
0.81303125 0.8104674471002908 -0.19574520173740334 7.955976836066008e-06 1.65024830710747e-06 7.307309974853356e-06 -1.4296796670168838e-05 0.015705604046075055 0.23665440802178772
0.82545 0.3355023481463985 -0.7534123697121495 2.053106851874301e-05 -1.1354953052709192e-05 3.2022882097089307e-06 -3.815999346307702e-05 0.2153001062610343 0.09903231987906494
0.83786875 -0.39265351413473226 -0.7398117877900957 3.2130914659608916e-05 -2.4179769057042706e-05 1.2102549802042008e-05 -1.6017414859636962e-05 0.19110683371242482 -0.14544442926520582
0.8502875 -0.8508235213791494 -0.12561497831055687 2.2294629610927698e-05 -1.4748632405603495e-06 2.9706509648279715e-06 -1.8948205175723568e-05 -0.04448937987022392 -0.2399519137605871
0.86270625 -0.5927133467344438 0.6240780728415287 8.334734088214919e-06 -1.2324100994168907e-05 9.42210127090216e-07 -2.1853671280650474e-05 -0.23892841085962457 -0.06566465975961512
0.875125 0.14818248089140412 0.8357193329431415 -1.7269909914949675e-05 -1.6672807929776106e-05 8.799465016977507e-06 -2.7412261152048918e-05 -0.16493561823271982 0.18765968897232788
0.88754375 0.7675464831566943 0.3953289676904545 -7.917478065908289e-06 -5.471786791397036e-06 -3.1122040951123726e-06 -2.6827506429132983e-05 0.09490808618396745 0.23280105273030768
0.8999625 0.8023820364475192 -0.40959232330761314 -6.2420383793024315e-06 -6.540127882589103e-06 2.388684437960013e-05 -4.845438336386521e-05 0.25267188420216485 0.022563821759026336
0.91238125 0.11099119578879718 -0.9029328961809016 2.324822011523185e-05 5.266158672213339e-06 1.8874555063794755e-05 -1.6300389341307647e-05 0.13936004175392147 -0.21615706088255093
0.9248 -0.6423891041986942 -0.6010056683240734 -5.161964129141485e-07 -1.1676694027027219e-05 -5.186387802720773e-06 -1.748705959502249e-05 -0.12644189373861311 -0.22581435788205664
0.93721875 -0.8581869951318056 0.11762852388460555 -7.737120382537964e-06 -3.095097759125668e-05 1.6852121268889398e-05 -2.4788781270406097e-05 -0.2588964715359567 0.004836872259244062
0.9496375 -0.4627585648021703 0.771588762512537 1.8102940804246706e-05 -2.758080655965373e-05 1.2428484497739708e-05 8.692420176343147e-06 -0.11758287780984618 0.23080829094110178
0.96205625 0.3764303102778271 0.8646018326216662 2.5393249694453254e-05 -3.270460289451065e-06 -1.6187335223931336e-05 -1.603356353312051e-05 0.15052131099904228 0.21229104683765565
0.974475 0.9265455160267023 0.16917809249694762 -1.8627332996116287e-05 -3.148044320805103e-05 1.9852322944827598e-06 -8.433600651099399e-07 0.26089448141329946 -0.04022378534216013
0.98689375 0.6601074181993849 -0.6317429105931668 2.5787134321188533e-05 -1.9310990803275176e-05 9.598306231734762e-06 1.1396840928091976e-06 0.07940554390496733 -0.2545017735195527
0.9993125 -0.09765218486565463 -0.9070817513081179 -1.97596205445424e-05 -1.2862713901520763e-05 -2.6190839684044675e-05 -1.2571388859725157e-05 -0.19497324371120142 -0.1828120992189001
1.01173125 -0.8075284018356482 -0.47581890741192623 6.490127587417448e-06 9.7009877343847e-06 3.439411705708117e-05 -1.7789857841896234e-05 -0.2500572550910289 0.09205735634351601
1.02415 -0.8660982354619625 0.38575329311013495 2.7165896340284796e-05 -4.91119890009159e-06 1.0993467837168438e-05 1.1314532746398493e-06 -0.03457484102287371 0.263873038015569
1.03656875 -0.20689082483745874 0.91172661823049 2.1350240538450327e-05 6.8418891932159965e-06 -8.381818531551553e-06 6.072303041782588e-06 0.21695276131112698 0.15810047904989108
1.0489875 0.589567141319335 0.7314643535733026 -1.5174220094505039e-05 -2.5350397665852264e-06 1.1626573074437136e-05 -1.954857801065169e-05 0.24727147705022737 -0.11690428613082471
1.06140625 0.9742394624931586 -0.027935460005886394 1.2520401467610492e-05 -3.48722064783419e-05 -2.0448687489742436e-06 -6.215504483345459e-06 0.01188291838624215 -0.27915088445769476
1.073825 0.5412379599130003 -0.8386184299582798 -4.06050269992224e-07 -1.2150236198607657e-05 6.353998887710565e-06 -3.5483355725170205e-05 -0.2451899536109126 -0.13806055058266856
1.08624375 -0.37259967147147116 -0.8969396801106264 2.0397824303067764e-05 -1.8159584226945027e-05 -1.4409773399345851e-05 -2.2595010328277994e-05 -0.2311567626626125 0.1533622049363071
1.0986625 -0.9100535966193306 -0.23853589624424118 1.0041733466945168e-05 9.524696314053912e-06 1.5469294413644035e-05 3.843348524030793e-06 0.027335320804165238 0.2727731534164953
1.11108125 -0.7607382833494949 0.5698494910670346 2.1247859410694758e-05 -6.051593979895884e-06 1.6854021052723897e-05 -3.4736001522196805e-05 0.2540304627574921 0.10534970087961378
1.1235 -0.0030396815266862387 0.9907790285895295 7.557214218412635e-06 -6.520851167635136e-09 9.647082023985207e-06 -2.6561470618566638e-05 0.21527388700066813 -0.1796630022488028
1.13591875 0.8144144066610827 0.5911554613320805 1.3201970501896198e-05 -1.319117408083486e-05 9.073007415099035e-06 -3.902468879338458e-06 -0.06499931677470278 -0.278166504928223
1.1483375 0.9514745837645402 -0.30040890975775864 2.270041356518825e-05 -1.2937423409419181e-05 2.18554177182146e-06 -2.0108039187844807e-05 -0.2784339670741278 -0.06632430348812131
1.16075625 0.3335502910041871 -0.9376484629166274 1.9020169018771246e-05 -1.048253116543429e-05 -3.3789650544100845e-06 -4.315953082350385e-05 -0.18458681254594259 0.21558710098849093
1.173175 -0.5569094749986808 -0.8263812269844792 2.650506124817345e-06 -1.1441449486312827e-05 3.415360655607758e-06 -3.238877524087179e-05 0.10387753795886824 0.2632347152700069
1.18559375 -0.9869197308701128 -0.03257783819010531 2.9008467174884092e-05 -1.8332025732435e-05 2.0784281886157227e-06 -1.4005046130688264e-05 0.2831834213519575 0.0321595598097125
1.1980125 -0.6257374893394859 0.7864397045623291 3.871993900285999e-06 -3.895899947618907e-05 1.136295576624346e-05 4.768071323133664e-06 0.16724138267166908 -0.2413232860168517
1.21043125 0.24807498452389118 0.9852395357250534 -3.2267984701548346e-06 3.0382094210826635e-05 -1.751691590005467e-05 -4.207845322422693e-05 -0.1356763660498519 -0.2613274774245471
1.22285 0.9645111138905494 0.3981468161955775 6.659943320122684e-06 -1.5845798310661535e-05 -1.9499336768276864e-05 -4.792356784005586e-05 -0.2941931730534211 -0.004974656076562293
1.23526875 0.8959706365274771 -0.5480437379317787 1.4367940394432425e-05 -1.8476824162405915e-06 2.4735607223543775e-05 -5.3502101046471094e-05 -0.1472562911393463 0.255457432057174
1.2476875 0.10386910436842178 -1.0301159110217397 -5.362115542725781e-07 -1.9319366189795063e-05 -1.733446674855961e-05 -1.7282544919476216e-05 0.15572300231708708 0.25433086116980097
1.26010625 -0.74049413180082 -0.7178237193096962 -4.009244421264482e-06 6.40607043894141e-07 2.3314784634619963e-05 -1.3650086892509768e-05 0.3005975940312596 -0.022485090076389123
1.272525 -1.0378680003265903 0.15786036803155326 -1.3636368811760975e-05 -4.92326183520542e-06 4.840079733520842e-07 -3.396561121891692e-05 0.11236815726489172 -0.2793814603792814
1.28494375 -0.4748531477378226 0.94754975528618 -1.817387264994977e-05 -9.495392110774185e-06 -1.4314972044694593e-06 -2.3723270696138288e-05 -0.1987595023468595 -0.22226380736351836
1.2973625 0.49016909043108026 0.9224048992232303 6.092245748738077e-06 -6.678624006897341e-06 1.3129962668552786e-05 -1.3836093705801908e-05 -0.28777643043806733 0.0756812986254945
1.30978125 1.02218607004916 0.16527553502679324 -1.1205012044558983e-05 -1.5022414664203839e-05 1.5512415527258188e-05 -1.2054190106036165e-05 -0.06703171445399832 0.2932637874854005
1.3222 0.7741709604023732 -0.7217287693633412 -1.9374503532584636e-07 -9.255318745283579e-06 1.511553342515277e-06 -1.2616272715215957e-05 0.23013109000172968 0.20133432100780202
1.33461875 -0.1177916247279048 -1.0851171653823355 -5.880613701996156e-06 -7.5480339599628906e-06 -1.332674710907955e-06 9.900699559398991e-07 0.2902443151362456 -0.10713860838040276
1.3470375 -0.9482249108856127 -0.5486653183587625 4.5074233565456244e-05 1.584672416720509e-05 2.006518731636895e-05 -1.055724240283887e-05 0.04635367657279433 -0.3068672918185945
1.35945625 -0.9939027212830199 0.41853198762076177 -3.844293686631237e-06 -3.70328491450045e-06 2.15218423996246e-05 -3.014424502229438e-05 -0.24704925255168406 -0.18685247324286977
1.371875 -0.2698707520789167 1.0368031678773055 3.185501352560289e-05 -1.578685259340979e-05 3.6817180707385542e-06 -1.3518912256845375e-05 -0.2785195860722956 0.13019960577882633
1.38429375 0.6799117167397492 0.8364680420826773 2.2144117928712063e-05 -3.7299087294035014e-06 1.0542615020530075e-05 -2.1910523130151623e-05 -0.011649081822516756 0.3049686374249276
1.3967125 1.0767425462764926 -0.06944230410355648 3.3746490521893644e-05 -1.824547003067467e-05 1.1116945862833314e-05 -2.7020870223100762e-05 0.2673256156150207 0.1476156630601131
1.40913125 0.5780019452982218 -0.9113208345098102 -1.2177900711335881e-05 6.776392752491608e-06 1.7139237613899417e-06 -4.354659296919602e-05 0.2538384098827375 -0.1753004645711067
1.42155 -0.38625545080401297 -1.0230812673189313 -3.0068573816042164e-06 -1.8097095925786137e-05 6.991810874921911e-06 -2.7491038298078442e-05 -0.044003076166250446 -0.3089703172733858
1.43396875 -1.0700114894265202 -0.306031528876888 2.2965019992263437e-05 -1.168302549841251e-05 1.8519823155782483e-05 -2.874058278248119e-05 -0.2974068937796525 -0.1023146933295984
1.4463875 -0.8766348037408931 0.672475651208312 -3.005228351808444e-06 -1.231772263710092e-05 -5.1241757856264695e-06 -1.7351042247805535e-05 -0.22939524715884452 0.21420710766466777
1.45880625 -0.001766873436803939 1.0798325388547272 7.183156389868119e-06 -7.265784789619146e-08 3.0439372220433405e-06 -2.3646783277963294e-06 0.07827202075579695 0.30257034749699907
