!Created with skrf (http://scikit-rf.org).
# GHz S RI R 50.0 
!freq ReS11 ImS11 ReS21 ImS21 ReS12 ImS12 ReS22 ImS22
0.13 0.06126687459430628 0.17617423992815168 5.455892628751288e-06 -2.8027325267604424e-05 1.5566379293283105e-05 -3.3627297603416806e-05 0.03513927071932248 -0.0411144116637262
0.131 0.07488799734272854 0.17207017465414376 1.4447490291514455e-06 -3.4912018600938574e-07 1.5968359269306732e-06 -1.679984556023784e-05 0.031562285027596115 -0.04437976178593053
0.132 0.08832731976869534 0.16702498961453785 4.1138280601193715e-06 -1.5893581798689254e-05 1.5794637906665602e-05 -1.813216878727479e-05 0.02765650178005539 -0.047315840453769686
0.133 0.10147197627508214 0.1608719506504712 -6.744191271485539e-06 -1.5948747050230603e-05 2.3383647504241058e-05 -2.167038029589435e-05 0.023507567932337423 -0.04990489298666466
0.134 0.1140411993889309 0.15343855754037708 -4.792401796430884e-06 -2.326300860380474e-05 2.6904042659567506e-06 -2.9367350043788787e-05 0.01907146651574173 -0.052154892125438224
0.135 0.12632531186561946 0.14547080936632575 -1.0747776632792807e-05 2.2294258305150037e-06 -3.2861340189681092e-06 -2.1360041073731942e-05 0.014437434801865396 -0.053984280544226715
0.136 0.13738757012267624 0.13621241097531542 9.902726552784676e-06 -2.449763562535372e-06 3.607273208344801e-06 -4.817010152634714e-06 0.009658931759118016 -0.05526309695256912
0.137 0.14820042865231575 0.12625219977589597 3.967296995504568e-06 -5.569170298231395e-06 1.1504604067266158e-05 7.178730998934985e-07 0.004715236897542251 -0.05632726161667957
0.138 0.15810453868392507 0.11555454317444049 -1.4237926113239634e-05 6.381051266776024e-06 -5.185249653802145e-06 4.573674812411162e-06 -0.0002594831841545118 -0.056805971689386635
0.139 0.16714797976031232 0.10388399371973774 -1.0449229249787715e-05 -3.5507010260812915e-05 3.099973372592773e-06 -1.6580815749252782e-05 -0.005370159097452663 -0.05686828343520803
0.14 0.17545733006822312 0.0914361520756527 -1.8921083287598156e-05 -2.7538390486992292e-05 -2.6784129011388367e-05 -3.092214817702596e-05 -0.010412921020886624 -0.05650552629683418
0.141 0.18272986663624968 0.078628725291388 2.408681492318038e-06 -7.449432881021754e-06 1.9437995320194096e-05 -6.6815524651101985e-06 -0.015415709175774487 -0.05563143344890677
0.142 0.18921335793151758 0.06490257697419274 1.2942393630916523e-05 -9.146779495164385e-06 2.4546176866093323e-05 -1.2607688627466547e-06 -0.02041581971033045 -0.05435591191391756
0.143 0.19453569178850066 0.05094406089125474 4.2620001119147826e-05 -9.737127165113724e-06 -1.7253827580036454e-05 -2.8529825301144608e-05 -0.025231439570766293 -0.05258477314756568
0.144 0.19888068345523935 0.036539630270373546 -7.724162964135826e-06 -1.3355501928564299e-05 3.3194131998326414e-05 -1.3748134005681139e-05 -0.029914278434256963 -0.05042209810239674
0.145 0.2021280707835256 0.021801985536506953 1.783634504801513e-05 -8.428392948551117e-07 1.2796499576452307e-05 2.3759081470022878e-05 -0.03439538112535555 -0.047812563363897685
0.146 0.2042527166180963 0.006650602120751736 -2.3744155128670162e-05 -2.508705508502587e-06 2.3364582701700828e-08 -1.4900211552627453e-05 -0.03869383194785279 -0.044819822089329844
0.147 0.20516101392885663 -0.008512185158888895 2.023354251733436e-06 -1.4657861311041063e-05 3.1923797517846363e-06 -4.105063315602677e-06 -0.0426443461345443 -0.04146302697601934
0.148 0.20512380709548947 -0.023908497478270733 1.4606664170202851e-05 -6.180484907826672e-06 -1.1300002910495992e-05 -3.861172396419749e-05 -0.046316010763672755 -0.03774708251029642
0.149 0.20373500867241162 -0.03941111078016024 1.4457388272382421e-05 -2.4302570205091123e-05 3.27804207204017e-05 -4.637651376238097e-05 -0.04969074503967916 -0.03368468166282726
0.15 0.20131941067959874 -0.054670376421558094 9.284129727421813e-06 -2.135601806687146e-05 1.714882117041224e-05 -9.570807895350916e-06 -0.05269971751416816 -0.02931534730039188
0.151 0.19780048513528756 -0.07009794768487763 2.543256718602509e-05 -3.36450424819375e-05 1.153330490703221e-05 -2.902337749277674e-05 -0.0553363769560766 -0.024745913884483595
0.152 0.19326904675376752 -0.08504041586708383 -1.8448608017069757e-05 -1.876832017716561e-05 1.2048261895660998e-05 -2.2882939257331253e-05 -0.05757098457499686 -0.01989355202447129
0.153 0.18732961337813275 -0.09960901786638139 -1.1895477657517533e-06 -1.919125484560682e-05 1.4881453380328745e-05 -2.5441861357703533e-05 -0.05939173125845459 -0.014842433290700029
0.154 0.1803958492515613 -0.11390729792991057 -1.6215243692342482e-05 -1.905916437968226e-05 1.4323396725609768e-05 5.604380306941133e-06 -0.06074902709802896 -0.009621700657181412
0.155 0.17237400563777647 -0.12777753063400302 1.9822541093788527e-05 -3.0575526228379397e-06 -2.7940981506329466e-06 -5.35759884870113e-06 -0.06177020846657149 -0.004023257674680163
0.156 0.16328546293298107 -0.1411133295757121 1.2516596296206531e-05 1.0005706792227205e-05 1.2365015799140082e-05 4.8928770977349404e-06 -0.06215146316992051 0.0010594264856325579
0.157 0.1532253833081766 -0.1537381155490569 8.291628680882632e-06 -3.3459914373589566e-05 2.813877638284361e-05 2.56875503160296e-05 -0.062140659777660055 0.006548380455878632
0.158 0.14208723509815838 -0.1656182813948376 -4.752746524895649e-06 -1.3105304090892687e-05 2.2527705182550482e-05 -5.261833901542849e-06 -0.06163628936595363 0.01198088098105592
0.159 0.12997503246383357 -0.17693450896096477 2.854866103117841e-05 -2.3206512279982913e-06 6.9526560287256155e-06 4.941780244963037e-06 -0.06062950780530041 0.017465781270120797
0.16 0.11705332964897022 -0.18716827693826532 -4.023724508499203e-06 1.150222699449603e-06 2.7038685950870847e-07 -2.0763007637964904e-05 -0.05920804672891891 0.022820516795171598
0.161 0.10311253261638115 -0.19678166073080278 1.823472140240009e-05 -2.8637856858242295e-05 -9.899323612633711e-06 -3.7304653548499273e-06 -0.05722702907455676 0.02808556418831052
0.162 0.08856460990586539 -0.20529018727075996 5.250823533840515e-06 -7.41739788445157e-06 -1.6644869703939435e-05 -2.030440490373641e-05 -0.054866781178609325 0.03324282082848575
0.163 0.0730626597670712 -0.21266025083982165 -9.675531729761706e-06 4.29360467046372e-06 1.9974692547378036e-05 -3.925214596622499e-05 -0.05202284266491968 0.03816654513964182
0.164 0.056897970011481544 -0.2188995849098462 1.561993000489366e-05 -2.5654009516229363e-05 -4.074292658061996e-06 -6.530133711258672e-06 -0.048721039809861734 0.04286843894676893
0.165 0.04020169287607438 -0.22423852307420158 1.7141061672370353e-05 1.3130993294797982e-06 -9.66781646621274e-06 -2.830284946695759e-05 -0.04501050658287752 0.04734060015464639
0.166 0.023245598607287875 -0.22773669164404556 2.603566410124096e-05 2.6128007385684943e-06 -3.1828403239958965e-06 -2.510118364878867e-05 -0.040845162502344344 0.051378160150877504
0.167 0.0057665136633080795 -0.23041949264922787 6.8443598040825785e-06 -1.5749758274626853e-05 3.308965381187731e-05 -2.2013665987301962e-05 -0.036380345806086546 0.05515241512238242
0.168 -0.01204253178501955 -0.2315978255176744 2.109663902608659e-05 3.7210189395120863e-06 2.822870876867635e-05 -3.010655715854635e-05 -0.031478980295628435 0.058613981169215235
0.169 -0.030030800818339778 -0.2312737384500354 9.878344127673963e-06 -1.870595125586667e-05 1.3696422158895903e-05 -1.6508180520514954e-05 -0.02628673605933944 0.061542335712450186
0.17 -0.047916140775347615 -0.2295805587043291 6.885520943344512e-06 -3.3609083125537088e-06 -1.2566912350149833e-05 -1.1237966605454467e-05 -0.020817020603769897 0.06403848911657672
0.171 -0.0659299216114623 -0.22654021578738207 1.180690971672662e-05 -1.4669058132597402e-05 -4.648973437141556e-06 -9.329176098762488e-06 -0.015121830722588953 0.06607505994925489
0.172 -0.08349167648452585 -0.22210761410774407 1.8319275282231704e-05 -2.3187449033306777e-05 3.8206868430903015e-05 -2.7852549648495955e-05 -0.00921311702842167 0.06759323592518077
0.173 -0.10117171286513943 -0.21603982469570648 -3.93992373968736e-07 -2.4177649344316197e-05 4.8362558051939505e-06 -1.645040524675273e-05 -0.003153235304431886 0.06857301699766839
0.174 -0.11798330496621211 -0.20876719022710583 6.944013357203435e-06 -1.5401116357353745e-05 3.8742398405805325e-05 -2.6962722637535908e-05 0.0029717155538337876 0.0690354953443914
0.175 -0.1344666842192586 -0.20006039225987007 -2.820716046661197e-05 -3.388721842934825e-05 7.189405813986541e-08 7.869347351662726e-06 0.00922136673585077 0.0688816515876713
0.176 -0.15058098419745033 -0.1901030403841912 -1.8218468234466873e-05 -1.1884259184488984e-05 4.2830081741501034e-05 -2.9034710121236555e-06 0.015440371907688741 0.06819342671522034
0.177 -0.1656543790489987 -0.17866553538735055 -8.19979716886869e-06 -7.671556919921665e-06 1.1670079775817635e-05 -6.6136461861627744e-06 0.02168272603493102 0.0669499353403876
0.178 -0.17973805103318216 -0.16601184694055615 -3.0752294908146617e-06 -1.0110371483913612e-05 -3.078816069020123e-05 -4.635773278354022e-05 0.027629752580018575 0.06507928157752513
0.179 -0.1928666107916639 -0.1521290780457071 -2.0191385409789817e-05 -1.1701594264079233e-05 -9.097474473191576e-06 -2.1874612331641183e-05 0.033495062599264595 0.06267513237470033
0.18 -0.20546286001007757 -0.13724537404124648 -1.0955283993146426e-05 -1.055632434267027e-05 -4.739607559966628e-06 -9.211771899818554e-06 0.03928953705181026 0.05986862574769462
0.181 -0.21632391847301147 -0.12134102742556485 1.0936330519104214e-05 -2.645363452722635e-05 1.2659208617746044e-05 -6.150288110735745e-06 0.044732375620716365 0.05646509485524881
0.182 -0.22605290083207094 -0.10477295359734612 -9.225070021898797e-06 -6.58017849748489e-06 2.303616565702466e-05 -3.516212652335349e-05 0.04999590147883267 0.05250158531368897
0.183 -0.23419431654045622 -0.08730697708267011 3.4269786922143465e-06 -1.300577224140809e-05 4.2056058459400615e-05 -3.7890814739591234e-05 0.05485248420408746 0.04801509614599981
0.184 -0.2415716201425113 -0.06923390122099775 1.840829693378416e-05 2.6132096304385202e-05 2.8795283951178296e-05 -2.6942099882707927e-05 0.05935659948474889 0.04308491802762582
0.185 -0.24707244204731774 -0.05058328942943142 8.064189577112429e-06 -7.221800782919862e-06 2.1318016017637207e-05 -1.9375862222671197e-05 0.06334328519791974 0.03774086347471017
0.186 -0.2515690112559714 -0.03130670948741989 -4.13201926335952e-06 -1.81059978346167e-05 3.6777233139300643e-06 -2.511158943343235e-05 0.0669014820628974 0.03201961640923
0.187 -0.25414195114943544 -0.011998922332932609 -8.509060558760286e-06 1.932044263004512e-05 -1.7440432671734597e-06 -5.029398165729882e-06 0.06995832995951676 0.025882167639469877
0.188 -0.255041629043293 0.007687802713350168 1.3854344036638047e-05 -3.1869638524512084e-06 -7.607141555492122e-07 -1.6421164079709825e-05 0.07231850738856235 0.01961766698718414
0.189 -0.254850413909119 0.027523889958048504 2.613463383402986e-05 -2.1445158029054512e-05 1.4051219725332325e-05 -3.0490385980360024e-05 0.07411581715550554 0.013052337335896396
0.19 -0.25271756560643416 0.047159289675669964 1.0454228602175203e-05 -3.646761114619517e-05 2.1455147992927033e-06 -7.605436853257158e-06 0.07536849543123915 0.006331844807683984
0.191 -0.24936009343380783 0.06648796184170944 -1.572091269946595e-05 -8.026412601381505e-06 1.7231016990306082e-05 -6.8700534433779184e-06 0.07618501713297636 -0.000567907950823337
0.192 -0.24443372837557711 0.08573419827357165 1.781089397014921e-05 1.1736456377955676e-05 -2.6810408499313822e-05 1.4234033439798472e-06 0.07581117064646262 -0.007285440366656446
0.193 -0.2382012598869367 0.10457853834772755 2.1607168579270195e-06 -1.3874779974454464e-05 2.400830777122255e-05 1.1106108273367343e-07 0.07550271128802209 -0.014372639382083453
0.194 -0.23032052551187432 0.12290707127810374 2.581615628643944e-05 1.1562174088428249e-05 2.201255573369159e-05 -2.9697418390029216e-05 0.07404145502966215 -0.02108225865474168
0.195 -0.2210843824355747 0.14054980118626065 -1.244493355333084e-05 -1.0236031863834992e-05 9.439434215798541e-06 -2.246753159005178e-05 0.07243026070370256 -0.02804727262645185
0.196 -0.21049784687960799 0.157186197632218 1.527885308034297e-05 -1.2286571465794931e-05 -1.2815162512665764e-06 -2.6491225641001666e-05 0.06954362759621663 -0.03422883591162563
0.197 -0.19897343523928926 0.17377635621722906 1.1804209665034279e-05 -1.6475127741185218e-05 -2.745750262374325e-06 -6.5167035144070125e-06 0.06661906803867954 -0.04070716890873912
0.198 -0.18589709388360476 0.18896398735823738 -1.0799173474733726e-05 1.767129028945535e-05 1.1978505170132022e-05 -2.4242072426978063e-05 0.06300167033218197 -0.0468151655960991
0.199 -0.17173470285083378 0.20314190550726957 2.132650579649618e-05 -1.4614526039953099e-05 1.4989387341309694e-05 -1.2250251751787954e-05 0.05875385980398014 -0.052454219832849994
0.2 -0.15679650190154007 0.2167116132879218 1.8053093815922653e-05 -2.4155407425180478e-05 3.474107777652859e-05 -8.151382419791389e-06 0.05396412815884225 -0.05769964450804726
0.201 -0.14065355042317004 0.22865004016987323 -2.5849586344207004e-06 8.723681959117436e-07 -2.767439979096496e-06 -3.9615047900712916e-05 0.04876435084947305 -0.06248574094095468
0.202 -0.12380566688600454 0.2396205132972445 -1.0575153839206825e-05 -2.8124905065092756e-07 2.960253625003883e-05 -2.8914315946586803e-05 0.043176725812763175 -0.06701020638522161
0.203 -0.10569433729125495 0.24923643940869325 5.392104411693873e-06 -2.0566046399413296e-05 -2.3958302715652454e-07 -2.019524027550444e-05 0.03684019074364775 -0.07102333494948508
0.204 -0.08731452132703954 0.2576241488077958 2.1600851162375187e-05 -8.434037377431671e-06 2.9034659601780967e-06 4.150191363710912e-06 0.03084194760727952 -0.07401620304404655
0.205 -0.06796249494541179 0.2649513954870957 5.611449950291605e-06 -1.216781183057346e-05 4.653575313698257e-06 -1.9684810011982086e-05 0.02422490576061132 -0.07672213814155669
0.206 -0.04814176181137867 0.2704371720958787 2.398839097044049e-05 -3.1141215041889405e-05 3.206624520671105e-05 -6.966270588087314e-06 0.017421995291495053 -0.07883987342278723
0.207 -0.028126291623530243 0.27444140109175297 8.158211251005255e-06 -1.8696334707081406e-05 1.2397927066484757e-05 -3.0351796573423486e-05 0.01042860911231213 -0.08048486713146245
0.208 -0.0073622103411096675 0.2775360353295084 1.2184018800040545e-05 -8.436368808748749e-06 1.1302729665015886e-05 -1.4118367399232744e-05 0.0032874699929443816 -0.08127051162065022
0.209 0.013172904764067456 0.27860415983779335 7.038124295243654e-06 -1.5770254833331808e-05 2.445003432952853e-06 1.5490988482840243e-06 -0.003907457128098814 -0.08146457056969958
0.21 0.03411695046843988 0.2781738313089601 8.669165787268567e-06 -5.337910695058092e-06 9.011336879427802e-07 -1.956776922531348e-05 -0.011059930206837841 -0.08110130192152565
0.211 0.05547478455351812 0.27672076333247414 2.0424445496001965e-05 -2.671746317777408e-05 9.940211928571258e-06 -3.262430751884162e-05 -0.01835121755488424 -0.0802613958398428
0.212 0.07623613666717334 0.2730184136889984 -1.4284060238290895e-05 -5.7688694510102925e-06 2.204991623087438e-05 2.1087885084437033e-07 -0.025298052931398255 -0.07847791410375227
0.213 0.09739856285108411 0.26816907527349676 3.043010484973023e-05 -2.0301251868441164e-05 1.0725150856036013e-05 -3.2406142934953466e-05 -0.03223888445277208 -0.07629690911807631
0.214 0.11826622750341186 0.2619211369328678 2.6185821160654513e-05 -7.895155339220047e-06 1.4988444206635814e-05 -1.145402660134946e-05 -0.03896489871326562 -0.07347555951886034
0.215 0.1382546076381017 0.2535604353500082 1.4555421284351495e-05 -6.62160638466958e-06 1.7946785068513467e-05 -2.617385355965948e-05 -0.045420210461138956 -0.06999321436925157
0.216 0.1578505257237736 0.243577160250918 1.7565105344286122e-05 -2.1594598769661484e-05 -8.327467195824982e-06 1.76942635234926e-05 -0.05156072692794864 -0.06601327244901217
0.217 0.17674509310739284 0.23236583018117837 -2.2418095615585695e-05 9.501490101961603e-06 2.4710371818303394e-06 -7.790801899552364e-06 -0.05734224645285616 -0.06149203085856681
0.218 0.19500497635382966 0.2197027388930628 -2.910365580536177e-06 -2.926307220012128e-05 2.2443468644734976e-05 -2.247715670166716e-05 -0.06276611264081743 -0.05649936663742371
0.219 0.2127945368337055 0.20556339930207856 -2.7258005853655884e-05 2.0482167906503176e-05 3.0186609955566675e-05 -3.0104400791579377e-05 -0.06786282046295945 -0.051022335953903354
0.22 0.22885970124539162 0.18983962601970192 -5.7329735767910405e-06 -4.264721787849627e-05 1.4812910985949678e-06 -3.6434904963637275e-05 -0.07228877060800575 -0.04510253853465986
0.221 0.24375686355020537 0.1730189735520043 -7.077525010380523e-06 -2.9649155416243406e-05 7.3080966327820495e-06 -1.886504576534333e-05 -0.07620946748273638 -0.03879140362405725
0.222 0.25786808243372544 0.15462590344165994 8.35400872372293e-06 -2.1114957093190862e-05 -2.9038868500998552e-06 -1.8415670442146094e-05 -0.07970179201164417 -0.03213842336491657
0.223 0.2705409491212486 0.13527270864548935 4.0373412200143906e-06 -2.93809404903328e-05 -9.772667089158775e-06 -1.2642928470810172e-05 -0.0826947119036089 -0.02515906492633812
0.224 0.28172310199244366 0.11475738970482713 2.2858149205994677e-05 1.0300108471255512e-07 1.1461973672669542e-05 -3.515396224704425e-05 -0.08481564589613305 -0.01797977787923877
0.225 0.29067202884613164 0.09331255594477136 -9.692530199672457e-06 -2.0830173710914108e-05 -3.798089363974858e-06 -9.96333015218544e-06 -0.08633848165155714 -0.010660787911214819
0.226 0.29840928026488023 0.07129754376008882 1.0505828963229207e-05 -3.345538768539724e-05 2.1566798297085666e-05 -2.4682033074219607e-05 -0.08746007506715363 -0.0030422331174713947
0.227 0.3044750925415744 0.048631160515162634 4.0682530414369545e-06 -4.765943516653438e-06 2.0894256308020896e-05 -1.628885390764092e-05 -0.08785779174821753 0.004604431758235942
0.228 0.3085375387616224 0.025452173292188043 -2.5612679492053515e-07 -4.8163597251665916e-05 1.4635909002454862e-05 -1.4848992842373229e-05 -0.08741005825495682 0.012223917798202403
0.229 0.31060169189716014 0.0019654114721068877 -9.720358416896263e-06 -4.169916788135778e-06 -6.3938387870191276e-06 -1.0411477282910323e-05 -0.0864030820672165 0.019848473481107767
0.23 0.3110426302974164 -0.02191004740604946 1.1697664207205709e-06 -4.319652752532305e-06 -1.258075179881387e-06 -2.8905101617330485e-05 -0.08474403415670674 0.02738178610885624
0.231 0.31014795979786663 -0.045665797358136626 -1.193191506740495e-06 -1.6528942792879294e-05 2.3177923983178413e-06 -1.0636626944240578e-05 -0.08235974952962903 0.03474777956612045
0.232 0.3060183153550035 -0.06895160024044755 1.6126527587413957e-05 -4.6038059301532145e-05 1.0314068196104139e-05 -2.3212610938125357e-05 -0.0794579148312439 0.042095772635713936
0.233 0.30277303121007704 -0.09390603224513386 1.76189021583115e-05 4.697482551887336e-06 2.102069878981755e-05 -4.614238581440656e-05 -0.07584541472149245 0.04891709926049259
0.234 0.29372721831644144 -0.1153553777979006 1.2073383443179228e-05 -2.975992902478984e-05 2.478885108747661e-05 -1.5042244102405077e-05 -0.07158112653955259 0.05558031334642255
0.235 0.2861800831270863 -0.1388133283901714 -1.1122025055228808e-05 -9.522736492988955e-06 2.398271636378953e-05 -1.7796934461684214e-05 -0.06680854274692967 0.06197716093353879
0.236 0.27517535270998883 -0.16018853166845254 2.0460591201906743e-05 4.710110718298189e-06 2.9498062956605045e-05 -3.030366606828584e-06 -0.06136265428714994 0.06770325586558278
0.237 0.2626600862246582 -0.18078505937068887 1.7083562791028934e-05 -2.981449759965939e-05 2.514141752206402e-05 -1.5240360818119248e-05 -0.05554581481967438 0.07317062124223489
0.238 0.24872008656696593 -0.20062462506836468 6.087421747897782e-06 -1.3314304588165838e-05 1.6784386221891424e-05 -3.133454457779728e-05 -0.049101707320412996 0.07815167799141538
0.239 0.2334524360287728 -0.2192503919693829 1.029016418115419e-05 -1.033868546782499e-05 -2.366874392858939e-06 -5.135068225258965e-06 -0.04220713190910689 0.08223925192883812
