!Created with skrf (http://scikit-rf.org).
# GHz S RI R 50.0 
!freq ReS11 ImS11 ReS21 ImS21 ReS12 ImS12 ReS22 ImS22
0.13 -0.06544109399635725 0.17907583108221617 5.932738284495851e-05 -1.196081508085118e-05 2.0921804193547033e-05 -1.7022593161472164e-05 0.05411844163549792 -0.015082899754060021
0.131 -0.05734312035425558 0.18326230333234556 -4.252865176640845e-05 -3.0633860310476094e-05 6.316977211835016e-05 1.3554926641137585e-05 0.05346866619753944 -0.018420932628224536
0.132 -0.04891046363974572 0.1871736623377963 8.008920390455474e-05 2.278656200274235e-05 5.709164503655893e-06 -1.0811058162868263e-05 0.05263453360567302 -0.021770413269521442
0.133 -0.040166423104711725 0.19043603044536353 3.4070588342127306e-05 2.274508551552504e-05 2.489260397274993e-05 -4.01586633851712e-05 0.051542381065322274 -0.025008531135264658
0.134 -0.031258031520031884 0.19393107040953106 -3.1507296822479324e-05 1.787136954033871e-05 3.351372268922923e-06 -7.309909252052042e-05 0.05034527717971398 -0.02852591487645873
0.135 -0.022487830677880228 0.1963021864573242 -7.18367541390296e-06 -4.371483611306467e-05 3.5037476666853656e-05 3.970542356386129e-06 0.04881260764957668 -0.031748980515844544
0.136 -0.01334208754768989 0.19797622480895036 -2.7899428884451037e-05 3.752704438192368e-05 2.3201736450701746e-05 -1.0361368162933575e-05 0.047126765201478335 -0.034814824815404447
0.137 -0.004052305761933563 0.20010087868584353 -2.312920719040433e-05 -1.4243098547191211e-05 -2.4290312401094556e-05 -2.7530754968815656e-05 0.04522044623862197 -0.038044388512739134
0.138 0.005284239771102978 0.2017969754144918 2.713825714657101e-05 3.8197715412100986e-05 7.534290924274444e-06 -6.139943844974448e-06 0.043044328039961804 -0.040950847026535404
0.139 0.014764211485460678 0.20222053456883146 3.052615153840542e-05 -1.3928537825725525e-05 4.632766799987595e-05 -4.003970614849862e-05 0.04075760139225257 -0.04375798866467095
0.14 0.024083273909202386 0.20276790729041191 -2.553176700790696e-05 1.5535957985868645e-05 1.1042689228382056e-05 1.7571869735403927e-05 0.03830366894915585 -0.046446707612936504
0.141 0.03405614290628919 0.20249364943830245 3.1396332851816234e-05 -4.7784278801133725e-05 7.891027884326598e-06 -1.8380683826040417e-05 0.035569129860644436 -0.04901641612807813
0.142 0.043818135507021135 0.20174775878691936 -1.2852139264470385e-05 -6.28412673647209e-05 2.0607685306253742e-05 -1.1773603157563084e-05 0.03271007942330339 -0.05146447292508991
0.143 0.05387794177218645 0.20041920184191594 2.0845364436440946e-05 -1.5326012504121784e-05 -1.4289959940606581e-05 -3.2279205642588665e-05 0.0297520432786396 -0.05363098331575751
0.144 0.06308786332842974 0.19890637383843982 -1.8114410591960527e-05 -4.790086213970198e-05 5.779674472693523e-05 -3.873537044817775e-06 0.026588132123980132 -0.05568454610852069
0.145 0.07298547647420678 0.1968021575789981 1.5391334627987712e-05 -6.909006435936067e-06 2.6138123913382982e-05 -2.1540621368181413e-05 0.02323466377570117 -0.057541692471901745
0.146 0.08230771896329706 0.19453138843963041 2.463863762380401e-05 9.351556456737414e-06 3.950552099862797e-05 -2.0072275214512557e-05 0.019759138130762553 -0.059107402221309835
0.147 0.09193265972019278 0.19109530204218253 -1.9924864235853154e-06 2.8354977120576735e-05 3.526902520982803e-06 -8.824514968167165e-06 0.016328117880172403 -0.06059024019654762
0.148 0.100863455458416 0.18806952313344238 -3.4140421670751344e-05 9.310355952273794e-09 3.1331418415404045e-05 1.9359679740857658e-05 0.012638929131311837 -0.06177730881267281
0.149 0.11012212188514917 0.18429707908533519 3.6441915820620354e-05 3.17767487135613e-05 -1.462139551830422e-05 1.0049006727913455e-05 0.009034454730263722 -0.06279180832199964
0.15 0.11924796437822652 0.18003065207455513 -8.346031798455553e-06 7.772169256939505e-06 3.7243681942447724e-05 3.330289332296465e-05 0.00517918494229498 -0.0635366651297452
0.151 0.1280063367888792 0.17499108291583992 -5.852296175769531e-05 6.837656926232772e-06 -2.262076495776313e-05 -7.111785928069444e-05 0.001349274762745157 -0.06403836889872316
0.152 0.13689697313418664 0.16984538136853533 4.269390435042488e-06 -3.2497720701261735e-05 -1.6034932455657568e-05 -2.962894398511308e-05 -0.0025505590411721017 -0.06435682719406037
0.153 0.14519439442706641 0.1642477439840991 -9.84618477578455e-06 -1.539281290648372e-05 -2.2330731853762327e-05 -8.376894056188755e-06 -0.00647426124832735 -0.06438401241380572
0.154 0.15326712480792837 0.157881321822021 -2.361139234406252e-05 6.752388998467326e-05 9.752126954038223e-07 -3.638860867393703e-05 -0.010427400302551395 -0.06416449684620158
0.155 0.1610589932604845 0.1514988236899342 -2.7098478286547564e-05 1.378875246460088e-05 2.3510994914748867e-05 -7.129794385284193e-06 -0.014249252785508926 -0.06380061317952469
0.156 0.16906843090132267 0.1446973628016531 -3.3483505250966713e-05 6.655537178245098e-06 1.3533534179962944e-05 3.7945988766265496e-05 -0.018179771522687505 -0.06307566984928778
0.157 0.17603913779372404 0.137672193112113 -1.057247699381198e-06 -2.7957341498073404e-06 -2.6741059689397665e-06 1.0709699226567663e-05 -0.022015717127767814 -0.06211662723897332
0.158 0.18316799408688147 0.1302853995205431 -6.032678410760664e-06 -4.9977065420382666e-05 4.748310511523536e-05 -1.0771557134724433e-05 -0.025731678578393105 -0.06103611055729757
0.159 0.1899126561485834 0.12215592520964444 8.445150871481071e-06 -5.827316795292192e-05 -7.671533161852764e-06 -3.7896858412625752e-06 -0.029580247541900084 -0.059654364427013405
0.16 0.19632029885563096 0.11400237004064168 2.853839492269272e-05 -3.57224488030321e-05 1.9470717012682017e-06 -6.622916533064088e-06 -0.033222553069350944 -0.058026358595614516
0.161 0.2021434161787409 0.10533870230769689 2.3720997867771147e-05 -5.738756140606855e-06 3.655513397934329e-05 -4.936974405677985e-05 -0.03682247515165227 -0.056272314845496545
0.162 0.20821684668020432 0.09660963520708774 8.741982825275191e-06 -1.8437816861456904e-05 2.938482554827088e-05 -2.0975712480663463e-06 -0.04042331948736253 -0.054187312520778234
0.163 0.21354046152402345 0.08732347251183895 2.5291317232948395e-05 -3.8561334185502864e-05 2.9849001784482753e-05 8.2786826377562e-06 -0.04379999931851441 -0.051896291150965806
0.164 0.21864400913676857 0.07776997774671704 1.425017089441851e-05 2.25187608444058e-05 -7.714002958356847e-06 9.24683425761916e-06 -0.0471516339416705 -0.04936292278546452
0.165 0.22346433078012748 0.06789531891082129 -3.5015482709487244e-07 1.5124525965017862e-06 2.6537838933799763e-05 -3.485462168118497e-05 -0.05029573389550776 -0.04668403247636649
0.166 0.2273822101404544 0.05813155356422257 1.22070086136902e-05 -1.4948950882828409e-05 -1.1883827947753017e-05 1.3146111323464138e-06 -0.053178102107254384 -0.04375146310636443
0.167 0.23103001893044597 0.04795367354197805 -1.0185944472979798e-05 -6.688131805938219e-06 -3.392643790370963e-05 4.244903293802766e-05 -0.05604086553728642 -0.04070439827404204
0.168 0.2343821006961812 0.0374685909807662 2.1471987666093643e-05 -1.9531851657244913e-05 -1.7872410334276615e-05 -1.2558028026216731e-05 -0.058804728687469096 -0.03742893507085733
0.169 0.23728409365978978 0.02672891412031681 1.0628426920926015e-05 -3.88854813556955e-06 4.9183880001277204e-05 -2.5844789206907747e-05 -0.0612453512747977 -0.034014384107676196
0.17 0.2393103888030331 0.01577893875569177 2.144367763571558e-05 9.348758585889094e-06 3.359998364602106e-05 -5.615364419706024e-05 -0.06348986790250752 -0.030346898213783703
0.171 0.2414012511453271 0.005098107278251782 -2.4409358169106034e-05 1.9535918735843067e-05 -3.270137855265815e-05 -2.8442535223161326e-05 -0.06547070671102262 -0.02661818027828261
0.172 0.24246661891020513 -0.0062080903748097434 -7.645605248859046e-06 -1.3315855284002547e-05 -4.4360780925568694e-06 -5.3501063230939885e-06 -0.06733766658380609 -0.022745477627497783
0.173 0.24345431052114827 -0.01756614027466143 7.321784334191422e-05 3.119702246985013e-05 -1.7659028239156227e-05 -2.4080256872435424e-07 -0.06885863066845344 -0.01876293079569743
0.174 0.24382992518869478 -0.029095190420703868 1.3418145869330296e-05 -3.918596629350539e-05 -1.698619580409707e-05 -1.706047423338024e-05 -0.07023289008819668 -0.014698402753042735
0.175 0.24346807808561327 -0.04034382466372711 1.0212483880715222e-05 -5.182051823934012e-06 7.472448540027875e-06 -4.59022798494606e-05 -0.07131975892535547 -0.010589225774420404
0.176 0.24272130293103464 -0.051968304535299506 -5.3254973512203144e-06 5.531292743468859e-06 -6.974280106829754e-06 -1.4615690032964071e-06 -0.07220896290259764 -0.0062976234646337035
0.177 0.2414653757935411 -0.06339652503154823 -2.7783185225894005e-05 -2.8590348949147083e-05 5.98585587603364e-06 -1.0051501506912517e-06 -0.07288913768609162 -0.0019086692426936822
0.178 0.23962227852402773 -0.07494239202410524 -7.396473746947774e-06 9.32210072910237e-06 -2.297389876542748e-05 -1.3452611993364105e-05 -0.0730682828545576 0.0023122201759267023
0.179 0.2368923166035866 -0.08634065698833143 1.915549766708095e-05 2.309424191404833e-06 4.1315487606003677e-05 -2.783692174610723e-05 -0.07314933351415433 0.0066611335916682834
0.18 0.23400166466400754 -0.0979562558141065 -1.9955411663677184e-06 -2.7002704843606386e-05 3.100105695520392e-05 2.0921241684667012e-05 -0.07316140520383163 0.01111768879713589
0.181 0.23030754460128172 -0.1091243654124732 9.130660255820206e-06 -1.641535490190654e-05 1.4796877200456938e-05 -1.1113122769311576e-05 -0.07266640336373645 0.015580399805379442
0.182 0.22651173739558142 -0.12025525711166334 -9.656582726112049e-06 -2.5115305984251004e-05 -1.2734407170696126e-05 5.938151585759533e-06 -0.07200668891110738 0.02003267764662522
0.183 0.22190273753320627 -0.13160891883324577 3.458003765718938e-05 -4.7077034876331854e-05 -1.5922013489633654e-07 -9.689568976481244e-06 -0.07098341836993736 0.024452377941557576
0.184 0.2169438315745037 -0.14262617562320035 1.6470875454579537e-05 1.952491536561107e-05 2.691214509888662e-05 -2.630799299589564e-05 -0.06976991929872396 0.028832795631703437
0.185 0.2110074387719465 -0.15345978860453624 -1.408414369141267e-05 -1.7641915315208826e-05 2.837426745556862e-05 -1.1648323034938725e-05 -0.06824051996654576 0.03313351640395515
0.186 0.20473874471095693 -0.16464175717120313 -6.313594735821511e-05 -4.811847430721759e-05 1.4829813917100035e-05 -2.613049052169942e-05 -0.06636561573054314 0.037464282960956725
0.187 0.19804996706044625 -0.17521980950284932 -1.8690141212408228e-05 -2.6217732160095636e-05 8.650973584552777e-06 3.3730095494945723e-06 -0.06441238687959543 0.041630385377084814
0.188 0.1902980752443157 -0.1852537896608763 -4.508096621442601e-05 8.756473099772881e-06 4.146244251247823e-06 -2.428162352071493e-06 -0.06204311613136652 0.04560907277521435
0.189 0.18222769045077736 -0.19493511256120918 5.223249515728445e-05 -5.1673746498643485e-06 -1.5360883262474173e-05 -4.347196347072575e-05 -0.059465947537331594 0.0493887599553722
0.19 0.1736392065614942 -0.2044881733506954 1.989436127111118e-05 1.405892760217113e-05 2.5584867446952994e-05 1.456149871960237e-06 -0.05666473426402302 0.053188468212155136
0.191 0.16467094226087228 -0.21345603994894427 8.540722150581648e-06 -3.5689333249705795e-06 1.3945665881555373e-05 1.3159153905537016e-05 -0.05360564745593294 0.05696891459881017
0.192 0.15498304887949285 -0.22243434943307464 5.539812768916761e-06 -9.109012882935369e-06 2.1661119379948975e-05 1.2953459553815621e-06 -0.05029044658800839 0.06005012860135696
0.193 0.1451009594125896 -0.23078961372525186 1.737828690257102e-05 -1.784417777288679e-05 -1.020372613574576e-05 -2.9142363333675646e-05 -0.04692951292479989 0.06354836107377732
0.194 0.13467108264456895 -0.23867535366133158 3.487323679403669e-05 2.9840111820888034e-05 9.527204135207055e-06 -4.485204283988775e-05 -0.04316224369885749 0.0664243623710162
0.195 0.12350560807034874 -0.24561362535698084 8.78931351843647e-06 1.4491022375968858e-05 6.764749286116568e-05 -2.5252943408447047e-05 -0.03957690322697755 0.0691357681407215
0.196 0.112264486005102 -0.25210390598730686 -5.221381409250856e-05 5.941800806679246e-06 -1.6653644051049584e-05 -1.5713333553888516e-05 -0.035109242513966896 0.07168667259232392
0.197 0.10031617114367676 -0.259007558601565 1.0280369158909138e-05 -7.103888764503467e-05 -3.1120195154289538e-06 -2.2796892711469715e-05 -0.030815980817587352 0.07435334174602089
0.198 0.08808505289857795 -0.2645766111909897 1.498887100664487e-05 1.53728709461186e-05 4.021587158768787e-05 -2.459719982204705e-05 -0.026366971428064358 0.0765413395989437
0.199 0.07564523383227116 -0.2694126007592554 -2.0566677621516035e-06 2.9291430112759967e-06 3.2768191226772287e-05 -8.458939785146546e-06 -0.021776827598368183 0.07837943023761997
0.2 0.06303457919214996 -0.2739699886419104 -3.7592151069240175e-05 -3.485667312648253e-07 -7.27132174189377e-06 -2.0041539444731133e-05 -0.017042201290814678 0.07988262910222298
0.201 0.04995243503853877 -0.27808081086249964 1.4250377898905215e-05 -1.0045698796554733e-05 2.392028775213887e-05 -5.1775661971954863e-05 -0.012270705606414273 0.08104656627798149
0.202 0.036645896673945674 -0.2808683292624521 -8.63684652645084e-06 -1.909308236196384e-05 4.571040384378973e-06 -3.850805918815907e-05 -0.00729730971509143 0.0822460286621862
0.203 0.023154929392574183 -0.2833419537799297 1.542299210213883e-05 -4.945924278706169e-06 5.370921445289942e-05 -5.2956535191379515e-05 -0.002326148393307281 0.08279203541684857
0.204 0.009992271790039323 -0.285026929163586 1.2671573141673505e-05 7.594461531337152e-06 5.364014407428575e-06 -3.3836741600684493e-06 0.0027585961243753723 0.08322532078837004
0.205 -0.004183839923678325 -0.2867431602762507 1.3184332657051995e-05 1.1939661480473612e-06 -8.882896289893057e-06 -7.511613603543888e-06 0.007807999099640359 0.08322983419021367
0.206 -0.017853813233667956 -0.28708881148664744 -1.112089329384161e-05 3.0868337642321074e-05 -1.543086933452274e-05 4.1109318724440966e-05 0.013015983786024674 0.08298507481938275
0.207 -0.03198590026191457 -0.2866425288264399 -3.2339882170892715e-05 1.478608970884781e-05 1.6778437100583228e-05 -1.3140096662453267e-05 0.018277084575341693 0.08252247251816552
0.208 -0.045361383790857385 -0.2860218716187689 1.107371233539679e-05 -8.03802765612724e-06 -7.846527421570977e-06 -3.211352239893063e-05 0.023224490084230966 0.08153864533045838
0.209 -0.05921688077640289 -0.28421016424400686 -3.909914364365928e-05 -2.542161030292176e-05 -2.696047363841501e-06 3.5641064795700182e-06 0.028320677004715664 0.08034049190971135
0.21 -0.07286459426573486 -0.28166725982449375 -4.705514979518229e-05 -6.660076279576537e-05 -5.184143975135068e-06 -1.1592691486028505e-05 0.03334793635901123 0.07880169928269554
0.211 -0.08651346420258739 -0.2790891238443421 -7.597847594547145e-06 -2.478494514775545e-05 -1.863303236209889e-05 1.3298481016588037e-05 0.03843069037554656 0.07718543664430311
0.212 -0.09959122500725585 -0.2753757958988988 -2.956382045283976e-06 1.6799962104589102e-05 3.729670695058132e-05 2.6701434979674544e-05 0.04311358021446141 0.07479851746177432
0.213 -0.11348032999597883 -0.2711899765369774 5.98174599658499e-06 -1.8388589978210672e-05 3.6202855322692264e-06 -5.9345274653678026e-06 0.047946910246991103 0.07242378619697343
0.214 -0.12683810626493056 -0.26638885949808727 1.4666196710508203e-05 -1.7509986222334373e-05 -3.226825725247001e-05 -2.035975408556944e-05 0.052588790626054975 0.0696295223438849
0.215 -0.13966005651296923 -0.2609003930016687 1.9178822560461285e-05 -2.331268890189743e-05 -2.940433922187991e-05 -4.657490791859997e-05 0.057045129852479115 0.06661173988199329
0.216 -0.15237427741924608 -0.25493006757770004 -2.1007235742557898e-05 -8.594287050418689e-06 -8.94955142120196e-06 -4.933732774502556e-06 0.06131356167386016 0.06318960533132423
0.217 -0.16429481112836125 -0.24785507070072765 1.4855813595141195e-05 3.025189050915773e-05 -4.892546783452153e-06 -2.3385845837596518e-05 0.06528423572894558 0.059560483026528346
0.218 -0.17667692730474938 -0.24047525421584395 1.2256757730988675e-05 -3.4841803545339074e-06 -3.601087730831119e-05 -2.191917530307313e-05 0.06920975392777172 0.05567093529734699
0.219 -0.18860892793867093 -0.23284770366514684 2.1510043747135504e-05 -3.201928074455174e-05 4.320616157537732e-05 -1.6114683794608787e-05 0.07300686083276582 0.0515737609952669
0.22 -0.1999083229969603 -0.22428596679604812 -1.774410990308478e-05 -1.9295518416903804e-05 2.8775041571659284e-05 2.430656341638627e-06 0.07623899612360979 0.047158357211949255
0.221 -0.21068797840901143 -0.21521791397716455 2.1184119836271846e-06 -1.96525447994419e-05 4.868962124592884e-06 -4.059222976933107e-05 0.07930897997267357 0.04248890852772928
0.222 -0.22140835343127654 -0.20567783754484473 2.4764994471645483e-05 -7.880362611952832e-06 3.4411501301495813e-06 -2.7143059888266962e-06 0.08226391896273008 0.03766607638722319
0.223 -0.23185294028540956 -0.1954653460791485 -9.729049565262965e-06 -3.5259114724438956e-05 1.6689995945232625e-05 1.0236644571062373e-05 0.08495587482417753 0.03257828178045659
0.224 -0.2416090067750552 -0.1851315401058922 4.590365168085674e-06 -3.172010950041809e-05 2.941608928560069e-05 -2.47240684072722e-05 0.08701192158181605 0.027452689903146962
0.225 -0.25016861340082613 -0.17349761939762573 4.597081313462546e-05 -2.5357218666708694e-05 1.9399911624288467e-05 -2.5964859490600918e-05 0.08874050372197122 0.02212629583511656
0.226 -0.2590152271536318 -0.16258823991511287 2.4283600131893752e-05 -1.7875574553145357e-05 -2.358792471372632e-05 -5.934684553843138e-05 0.09047654445742803 0.01656235822806282
0.227 -0.26683460435539985 -0.15087170948518228 -2.0193036919343855e-05 -7.218972942534872e-06 3.7385921807627275e-05 -4.709933151231073e-05 0.09179211625786798 0.01097061898694028
0.228 -0.274231253019141 -0.13859927580861917 2.8584888028047072e-05 -6.478429833468157e-05 -1.566692680669727e-06 -1.7037445379578778e-05 0.09251736951396264 0.005390171314865088
0.229 -0.2810050808318481 -0.12635317336871182 1.8953454171196758e-06 1.5515046126984403e-05 4.725659271543933e-05 -1.6113346090044352e-05 0.09304017724844008 -0.0002319234775146782
0.23 -0.28775610580977534 -0.11348614089850545 -1.9042475749175445e-05 1.6612724888442067e-05 -5.637235015880809e-05 -1.2046598806784095e-05 0.09314686164733421 -0.006029834677520358
0.231 -0.2940224239430914 -0.10061263024576404 1.6221330082694266e-06 -1.7627167459360183e-05 3.241622081966662e-05 -4.353427873266908e-05 0.09291158936852287 -0.011773986688008059
0.232 -0.29841527224771086 -0.08715673582142737 2.1798334933901442e-05 -1.9338589784606905e-05 -2.4194265746314713e-05 -1.7487597207453738e-05 0.09239810979903423 -0.01757741155026675
0.233 -0.3053393202240564 -0.07334952043438263 -3.629884679479284e-05 6.583540032435523e-07 -7.678827206732869e-06 1.2035229463219927e-05 0.09149354654859672 -0.023238060711936837
0.234 -0.30676101106896175 -0.05945468470139893 -1.045774243450046e-05 1.672066251650755e-05 1.637293155551241e-05 -3.304469259491682e-05 0.09010523699060485 -0.02885307292334733
0.235 -0.3121022519292028 -0.04516577428958822 2.396649631014234e-05 2.76074506353512e-06 3.2460753990388236e-05 -8.925349751129002e-06 0.08863450727793995 -0.034541140121719736
0.236 -0.31465655764681116 -0.03081769190430198 -1.753760937970491e-05 2.094106873297803e-05 -5.135851102854666e-05 -3.914241088935706e-05 0.08642784109270259 -0.0399420622569138
0.237 -0.31660189224384777 -0.016505826413349613 -3.087716737519357e-07 -2.5300287610060058e-05 1.3451321969493407e-05 -3.405961402563961e-05 0.08411512258190962 -0.04543160419666783
0.238 -0.31788088851818014 -0.0018638254965097222 -5.6547443771135505e-06 3.4939327056239423e-06 -2.4757703931888315e-05 1.6879302493224118e-07 0.08145636012658614 -0.050608550473694336
0.239 -0.31865537619891077 0.013085764315194492 -8.606128285669686e-07 3.9940742320340695e-05 2.3922612301247837e-05 -4.6503129322325484e-05 0.07833375438254243 -0.0554048797963665
