!Created with skrf (http://scikit-rf.org).
# GHz S RI R 50.0 
!freq ReS11 ImS11 ReS21 ImS21 ReS12 ImS12 ReS22 ImS22
0.13 -0.00546572809566606 0.0036877645947998436 -3.7914896415087953 -2.8855642483408164 -0.001789254692056942 -0.001136454030265197 0.0020937451831224882 0.000699922492432272
0.131 -0.00521955600966522 0.004002845159071007 -3.971649950610229 -2.627220440219544 -0.0019545324997153717 -0.0010093495178889209 0.0021399459642867462 0.0005549649955559036
0.132 -0.005017456901149044 0.004281764653743501 -4.136159891610787 -2.3587754888401418 -0.0020018338221703953 -0.0009548257537029183 0.002186959823035602 0.00041949550987107346
0.133 -0.004792199728207284 0.004543903559068782 -4.279133487667199 -2.0798548939484696 -0.002022169715221133 -0.0009135757979374057 0.0021970313445642637 0.00030777983578031236
0.134 -0.0044780524290979114 0.004766817640015795 -4.409087494992452 -1.7911852193303124 -0.0021237276106772338 -0.0007651124079693342 0.002246809099348742 0.00011895991940435047
0.135 -0.00426357410121178 0.005011343719633756 -4.5213579371717385 -1.4929711516626611 -0.002157940911932396 -0.0007404065953515119 0.0022178548372898494 -1.2279748763565882e-05
0.136 -0.003905530811852927 0.005202712826244777 -4.596692333456808 -1.1941365584256711 -0.002267572506292049 -0.0006258577826093013 0.002148827702607975 -0.0001715119957820341
0.137 -0.0036230516043609805 0.005336791763505957 -4.669517661845758 -0.8865356281782338 -0.0022664714103811934 -0.0005588619852401558 0.002215257996189504 -0.000281154581175254
0.138 -0.0033619842104128123 0.005477873119768158 -4.7193499259214855 -0.5761975663648494 -0.002385662801349524 -0.00043543048110680435 0.0021159195815792613 -0.00045080811938026373
0.139 -0.0030536506379921116 0.005611345857145849 -4.7449171142483335 -0.26294567942256414 -0.0023694884010901666 -0.00037032378991468513 0.0021115230054806434 -0.0005576304895658089
0.14 -0.0027982077116270646 0.005646035241332813 -4.750958832089368 0.04988331981380613 -0.0024526314100912524 -0.00021491443372637016 0.002043383445799836 -0.0006147227446004121
0.141 -0.0025258383431618707 0.005756366065400578 -4.734644027913702 0.3661294024928064 -0.002471591200435783 -0.0001531987258771204 0.0020360708915866414 -0.0007354934215880523
0.142 -0.002291308400197371 0.005768332703159507 -4.697752782383993 0.6739490414032043 -0.002548795941810244 -3.614638891747709e-05 0.0019272434611102482 -0.0008525202518033867
0.143 -0.002056646592397094 0.005733150717567388 -4.63960325347382 0.9822115435873638 -0.0025309634168201815 6.834771382702357e-05 0.0018545906740670228 -0.0009382419914810501
0.144 -0.0017696160643397394 0.00585230970406714 -4.564199359536858 1.2852220382088415 -0.0026211675251534092 0.00021384410182401456 0.0018038337184113201 -0.001038453520201682
0.145 -0.0015863823284781588 0.005806301911218615 -4.469032010624759 1.582567236196434 -0.0026148713727609453 0.00034751942459771974 0.001726410137895545 -0.0010812372425289755
0.146 -0.001383208076790122 0.005872480072420376 -4.352725687753587 1.8721881025344722 -0.002618302582247886 0.0004591010119869183 0.001611902731118744 -0.001203151417869244
0.147 -0.001208619519507813 0.005759437437323528 -4.216523000988256 2.153497664013037 -0.002630953572837749 0.000562601865365996 0.0015468346439113374 -0.0012018254172801977
0.148 -0.001045824901321002 0.005774493789225591 -4.0596343178870615 2.4249820877745596 -0.0026882068841604808 0.0006391818207794722 0.0014686926370429748 -0.00125213248241195
0.149 -0.000834372184535379 0.005743534620859265 -3.8914075454244106 2.686225480350282 -0.0026637866753538054 0.0007681543075777242 0.0014300116019095592 -0.0013048149219677945
0.15 -0.0007521831207231904 0.005710389596557607 -3.702568745525351 2.932811830011585 -0.0026409041008963853 0.0009652905227074183 0.001338631726260947 -0.0013110817135479158
0.151 -0.0005577467776556018 0.0057554037881701854 -3.5012933671422326 3.1638347707266394 -0.0026276114031079574 0.0011233976957365772 0.0012292957146992141 -0.0013167276084616619
0.152 -0.00045399131407556 0.005708790902638078 -3.2810160083582245 3.3883334619009022 -0.002608701682835029 0.0012333887583339863 0.00116273444542259 -0.001378043420990502
0.153 -0.00037237298402156523 0.005663564342980195 -3.052083622573187 3.5943207599980256 -0.002598459051242166 0.0013150674900295522 0.0011550047240297687 -0.0014436370431451847
0.154 -0.00024794600038615587 0.0056877955055073745 -2.8079019706629422 3.786017531810745 -0.0025447869822422366 0.0014489466418538483 0.0010440317699158372 -0.0014158679247066482
0.155 -0.00019344970004079394 0.0056727335919785765 -2.5527206724300995 3.9550042694960226 -0.0025046514539827647 0.0016168458623022973 0.0009911558022332378 -0.0014779102047889684
0.156 -6.518883873923232e-05 0.005759823984073045 -2.286244524659273 4.110603833138981 -0.002471429521877325 0.0017400729609860582 0.000976657257631105 -0.0014405273052888723
0.157 1.578909271261475e-05 0.005789735245853553 -2.0110880123329906 4.249839200666223 -0.0024429269023416925 0.0019011248213153377 0.0009108079247953231 -0.001470504572231633
0.158 8.206613843384845e-05 0.005871437686127223 -1.7266212387008475 4.371043957414274 -0.002347043856577568 0.001990217871164447 0.0009634085163833432 -0.0014940895463904293
0.159 0.0001900106892312235 0.00591521337878307 -1.4339464838797626 4.471246990123269 -0.0023007026710543978 0.0021454399494754404 0.0008597449862924553 -0.0014830447141995426
0.16 0.0002399214732390675 0.005961360525846934 -1.1368894737153148 4.550561831020062 -0.0022073532276479556 0.002246218963355442 0.0008458669638882006 -0.0015081121352468626
0.161 0.00041087885994557237 0.00609062591108224 -0.8357931597008668 4.6166040746471815 -0.0020911874529148046 0.0023917694814731666 0.0007736694500816779 -0.001541725375042051
0.162 0.0005702728327251236 0.006123749721747757 -0.5304742395168949 4.65591264596104 -0.0020870365745547896 0.002487922198897953 0.0007712241482260246 -0.001587006592278264
0.163 0.0006942654834978818 0.006260401783106862 -0.2190487788909048 4.680179413784075 -0.0020043373642342987 0.002642935992087086 0.0006988959771301059 -0.0016325519734328535
0.164 0.0008150310155712809 0.006365066864873931 0.09006419053469361 4.683948644230871 -0.001843810193301591 0.00270482563327893 0.0006936805341100423 -0.001686388000556638
0.165 0.0010273418071450552 0.006529591673338227 0.40041596415846875 4.668406213416878 -0.0017268316554890977 0.00286022021920719 0.0006678047754491728 -0.0017496668225989388
0.166 0.001197835872692687 0.006660418334558152 0.7038586289881489 4.625464200172892 -0.0016734703127017937 0.0029630313508568254 0.0005867540319888916 -0.0017656158837075161
0.167 0.0014039827849764046 0.006784700976120684 1.01017160007673 4.569857621611145 -0.0015885986010614405 0.0030390116336658835 0.0005611148379809605 -0.0018175811083612097
0.168 0.0016784826877004003 0.0068492788218662845 1.3114566974360946 4.495980971310152 -0.0014105996043713056 0.003167677354617687 0.00047156116276258976 -0.001854656411509578
0.169 0.0019729798414702864 0.0069539016519959635 1.6020316089991176 4.398746158587275 -0.0012388914215491855 0.003271344294029293 0.00045837770798404665 -0.0019342435127054148
0.17 0.002271353085482923 0.007037821847632979 1.891721542339745 4.2778855172761725 -0.001145786695108461 0.0033165841732489387 0.00038513848816652894 -0.0019466238357072221
0.171 0.0025303289137812504 0.0071702759927370786 2.166412041360085 4.143344799578326 -0.001064554220946256 0.003459212719720475 0.00031812197436700655 -0.0020300356398132062
0.172 0.002872913787322657 0.007225335167830481 2.434095228682612 3.9928282140109204 -0.0008574349227375136 0.0035416754916900053 0.00023628851742495873 -0.002039259469491724
0.173 0.00324183797242005 0.007309433548739171 2.692353145027972 3.8228477396189287 -0.0007085528543022586 0.0036280180597648027 0.0001389458911852273 -0.002108889169166512
0.174 0.003597211674613865 0.007320197482801941 2.9325860026201194 3.641195364283512 -0.00058263437383923 0.0036432335150590823 3.51889110470314e-05 -0.002186849738818943
0.175 0.004052098658685362 0.007230338666773945 3.1652200256606893 3.438902663815532 -0.0004035284711713312 0.0037459373783777557 -6.869821810873168e-05 -0.0021662550573950693
0.176 0.004417235255343784 0.007301808964998632 3.3827931783155094 3.2198075914937436 -0.0002431920427740789 0.0037814937814953714 -0.0001750565927575293 -0.0022597558065826063
0.177 0.004805380101350095 0.007193351924993882 3.5866501309738985 2.9956241901397203 -8.85444519542652e-05 0.0038191546099686905 -0.0002749872338497208 -0.0022484618420621186
0.178 0.005268412100071149 0.007087964727753682 3.7658515647621433 2.749214232511994 8.05081180836027e-05 0.0038459220035934757 -0.0003904696747620253 -0.002274257593054971
0.179 0.005657874827835109 0.0069215213710135705 3.9339882267061306 2.499068642276175 0.0003128986762914607 0.003934597560082156 -0.0005392003934861572 -0.0022962166068743566
0.18 0.006156811085512393 0.006785552841798304 4.096107124818792 2.236676664204007 0.0004623094423744059 0.003912889066135171 -0.0007104858923959681 -0.002308686385155166
0.181 0.006568401416030332 0.00659487568810024 4.231846830776795 1.9602739834236722 0.0006694230811680801 0.003953932320173917 -0.0008227634819428671 -0.0023467762527096475
0.182 0.007002666183819484 0.006331211175845847 4.348918562266108 1.6765412462537255 0.0008533787080632817 0.003976158958268379 -0.000956393236045357 -0.0022707480178684484
0.183 0.0074073393060153205 0.0060520500616855965 4.447437548864584 1.3886160770212848 0.0010293211467860542 0.0038763424363038586 -0.0011124883706159553 -0.0021959503227617612
0.184 0.007788104807736831 0.005657983741185304 4.525594675318788 1.0921706620107938 0.0012241354324345798 0.003917824734274858 -0.0012819428140961506 -0.0022088981918995097
0.185 0.008174109170295618 0.00529526498884086 4.58787841890907 0.793575564040843 0.0014321444190107306 0.003907409130413181 -0.0014185585290265974 -0.0021006272113166338
0.186 0.008558921320861612 0.004907902912626592 4.628281367544092 0.4867710037641317 0.001598910301896954 0.003911300617850203 -0.0015877213491307341 -0.002041067660586865
0.187 0.008905297696402819 0.004437554223356572 4.652605075049772 0.1842011892499879 0.0017370654603112972 0.0039094006300532565 -0.0017229619818940123 -0.0019378495475298762
0.188 0.009179900548929674 0.003926771126916714 4.646624557078885 -0.12075484126653413 0.0019621409769396267 0.003816441299336416 -0.00186667179861781 -0.0018474272220755103
0.189 0.009429930912178463 0.003402575126884083 4.626534776008931 -0.424800740960098 0.002153100251623117 0.003739870553836026 -0.0019477674687696552 -0.0017576287150916923
0.19 0.00958934894419257 0.002918359393650818 4.585586894216795 -0.7236419405135583 0.0023635217870614173 0.003665162641591552 -0.002053667369400278 -0.0015713900258814157
0.191 0.00976906422188491 0.0023486910375830907 4.537394070975726 -1.0300004639320963 0.00253191591402071 0.0036436386249972595 -0.0021577301381245128 -0.0014451562352702008
0.192 0.009893745625403237 0.001739666224712651 4.438714499720703 -1.3097888312293098 0.002708379874067424 0.0035544021000550718 -0.0022474594775591457 -0.0012873763679823414
0.193 0.009972784425694227 0.001206736040823487 4.356920306838044 -1.6097154621913472 0.002900463131992144 0.0034138758064890347 -0.0023384394985048185 -0.0011456687665226388
0.194 0.010006170316448236 0.0005574558134544894 4.232324759690036 -1.8812415319130251 0.003117665217988727 0.0033407742307314187 -0.0023801823146795582 -0.000958637205407669
0.195 0.009960931826677712 -6.255282303379675e-05 4.111471355380094 -2.1730016702655477 0.003287443449008714 0.0032604352351222874 -0.00245205509600469 -0.0007956122089049992
0.196 0.009809618840532455 -0.0006756442039601952 3.941284577433287 -2.413097548590368 0.0034662038248346634 0.003103058215120048 -0.0024640105829936976 -0.0005713394076475191
0.197 0.00968641010595273 -0.0012525304880614163 3.780299852554746 -2.672618052938931 0.003613450260024321 0.0030117403148664065 -0.0024521487095818936 -0.0004244549566741641
0.198 0.009500567481591548 -0.0018415982920695932 3.596610883672214 -2.91938654841533 0.003800546785502483 0.0028857114402891493 -0.002471579005216356 -0.00023798598995730208
0.199 0.009294900197495477 -0.002474946061180956 3.395501429857123 -3.1456450789308787 0.0039547358799498986 0.0026649539142436685 -0.002489339279506805 -5.3977984717246385e-05
0.2 0.009032184109560124 -0.003011517017492998 3.1769249943502538 -3.352812597453722 0.004107321792093554 0.0025507004025503988 -0.0023786756749571173 0.00013311875923885776
0.201 0.008626352419077946 -0.0034526486307768778 2.94844933400495 -3.553494263489199 0.00432003294024201 0.002391169337926919 -0.0024151307953752563 0.00030925150460790307
0.202 0.008237548937896364 -0.003973321932323798 2.7133212011062473 -3.746370042909924 0.004429813085932596 0.002248264916062408 -0.002324594691462809 0.0004907959316144212
0.203 0.007781748377487852 -0.004408130808506423 2.4572983909464705 -3.9066703155031557 0.0045517109814336406 0.0020283187732301235 -0.0022200192504095943 0.0006117557277848285
0.204 0.007364084791476371 -0.004791577259312634 2.1975192550824234 -4.058206991630493 0.004704865621189544 0.001859505105682357 -0.002074136511881641 0.0007539632478508517
0.205 0.0068645457574730085 -0.005195957088921378 1.9230493757456288 -4.190939824121073 0.004782083372307337 0.001628026734129135 -0.0019629466766135383 0.0008813468886434363
0.206 0.006294605111530806 -0.0054455010317921845 1.6459672938641774 -4.301033058501476 0.004901423839978108 0.0014349816637189872 -0.001827388113845627 0.00102961462829458
0.207 0.005772807895525169 -0.005688804016304675 1.3604833376723322 -4.404790066409852 0.004993773966036406 0.0012185863127059627 -0.001667126956410481 0.0011622605476429878
0.208 0.005190092424577064 -0.005862304363654314 1.0674909897356744 -4.480045244644267 0.005103010922154967 0.001028531138512093 -0.0015610603451617073 0.001228915965971541
0.209 0.004574479105964677 -0.0060225601270513665 0.7740783437703178 -4.534501203522009 0.005204493171835936 0.0008192193230550306 -0.0013294405878543566 0.001228922238637064
0.21 0.004039503052202736 -0.006112979068376266 0.4768526508592734 -4.5699150685227785 0.005280837504613761 0.0005630933583899786 -0.0012066572231714309 0.0013869540897180114
0.211 0.0034051263903384366 -0.006120848524340815 0.16934377840085596 -4.597712484757677 0.005307767712537465 0.00028294243674632867 -0.0010326520284974607 0.0013951512290035421
0.212 0.0028281458100437255 -0.006073624774448791 -0.12462017916358095 -4.591570867130272 0.0054022967027432004 0.0001256227723543472 -0.0008565416079046684 0.0014286115468020244
0.213 0.0022910789473433264 -0.005987980009971143 -0.4313186981243292 -4.574192049484444 0.00541065229125205 -0.00010259596919868024 -0.0006725770152211513 0.0013910019458987658
0.214 0.0017560087904766348 -0.005795896905788546 -0.7286725979691143 -4.536578934517949 0.005512172474573223 -0.00033348484817166283 -0.0005623948930109147 0.0013985603902329528
0.215 0.0012170175183072254 -0.00567235102412606 -1.0214771679676191 -4.475986730104191 0.0054771287943655815 -0.0006253639511452939 -0.00037232237491581044 0.001383863612545245
0.216 0.0007532495901736507 -0.005394335521538425 -1.3114754817406327 -4.397723825198483 0.005528917841467094 -0.0008997159473085114 -0.0001949062987911746 0.0013481284773606804
0.217 0.0002415740988241455 -0.005050845887624475 -1.5981665440738226 -4.299493495071645 0.005541246507332338 -0.0011009952235060386 -9.866635892465666e-05 0.0012439163090175076
0.218 -0.00020953259864730538 -0.004799085514171427 -1.8777001960652915 -4.18738399906452 0.005519764826879437 -0.0013580589347440353 8.71444472923699e-05 0.0011556119945417523
0.219 -0.0005764776654890297 -0.00436040371674691 -2.153382554172912 -4.058597331628516 0.005529064290651488 -0.0016221118987343197 0.0002020308362575894 0.0010737112750438046
0.22 -0.0009075693468110276 -0.003931114729951799 -2.4086723717662286 -3.901876720659565 0.0054515257998181245 -0.0019091806342461728 0.00030445627146686373 0.0009805094327494527
0.221 -0.0011364284780406623 -0.0035081437799206355 -2.654323999147952 -3.735212425428401 0.005460730556444321 -0.00218022907482608 0.0003744262115597629 0.000847497774162264
0.222 -0.001371222806574044 -0.003019778772324277 -2.9013926236303074 -3.5511272055165266 0.005403355887059152 -0.0024660111715554558 0.00041255298153636147 0.0007628018837915082
0.223 -0.00155369871397112 -0.0025734532153904345 -3.1325969595253524 -3.359298960513446 0.005355570400712155 -0.0026781717427538025 0.0005130924209941025 0.0005972823476640311
0.224 -0.0016554871822626854 -0.002067309915634363 -3.3432867687399916 -3.145050146759248 0.005253534344974999 -0.002946003468197538 0.0005231150896327376 0.000523686031132193
0.225 -0.0017185370455038431 -0.001572594980858984 -3.536549878891031 -2.9153067454283366 0.005129648219265473 -0.0031952786088488986 0.000539021004600204 0.000289934337493347
0.226 -0.001780549212992539 -0.001124801106409383 -3.725509416342102 -2.675047856704811 0.005041659721896757 -0.003454924495992601 0.0005794421622764848 0.00019081955182757347
0.227 -0.0016945288918994413 -0.0006065727815768536 -3.894892219390457 -2.4264205455456063 0.004917635017556899 -0.003677658482687556 0.0004991904719245677 1.805081256043802e-05
0.228 -0.001559399188532439 -0.00013621549585585022 -4.040058459365349 -2.165834803292861 0.0047718358667898945 -0.003959346840088225 0.0005184804514682815 -4.744338202850781e-05
0.229 -0.0014460582488318094 0.00026801105475385506 -4.171209920541442 -1.8974965225434202 0.004609249105868727 -0.004185886910674561 0.00046866690441125386 -0.00021142661040007268
0.23 -0.0013162264970305153 0.0007232744740182926 -4.283633311233335 -1.6189171453850062 0.004443211071826186 -0.004435946826137163 0.0004022793020437019 -0.00032831026384984367
0.231 -0.0009030695280398053 0.0010460430911982917 -4.375645663641384 -1.3364644304201765 0.004291402070658384 -0.004670122705480308 0.0003680338640132005 -0.0004202398034995363
0.232 -0.0006730984687823641 0.0013886966288040566 -4.45829732493883 -1.0459407397996667 0.004186388152318467 -0.004860552608702863 0.00021081709480210597 -0.0005345490273798101
0.233 -0.0003465574707916681 0.001717766431982673 -4.5145104875571995 -0.7516736283403427 0.003924577751046242 -0.005141048031215268 0.0001341505531144223 -0.0005894984372689481
0.234 2.7825241123323533e-05 0.001971525302338721 -4.546102494889114 -0.45776845045654324 0.0037372228626861596 -0.005299538476080106 4.120122274892709e-05 -0.0006596107793810985
0.235 0.0004045306518015216 0.002235343098500831 -4.572537328265082 -0.15593116796970732 0.0035277720745452118 -0.005562147700517155 -6.147516256982215e-05 -0.0006750903742992707
0.236 0.0008256275720818423 0.002389326559608156 -4.564501404872546 0.1400811019089317 0.0033426114634969558 -0.005715988500245964 -0.00023249873861284028 -0.0007145628264650466
0.237 0.0012347269027580046 0.002526317504993567 -4.545988654626862 0.4364777331834935 0.003075187088306332 -0.005914761634320997 -0.00029518444304038496 -0.0007508701982107498
0.238 0.0017151238373668612 0.002530104994524078 -4.507869955740816 0.7379395579897544 0.0028656547985561826 -0.006076057585112506 -0.00038770887604544686 -0.000780286314500966
0.239 0.002159741455775818 0.0025806611891570717 -4.436646549617373 1.0204580970564157 0.0025782928196877945 -0.00624139252966585 -0.0005226273327353762 -0.0007538030363604347
0.24 0.0025078181298623247 0.002487384562657866 -4.370212958323475 1.3139851731996053 0.002318863046370708 -0.0064296094803287 -0.0007026519261566914 -0.0006914364149391104
0.241 0.003006507441786438 0.0024038915488128164 -4.267163830902124 1.5954271812259924 0.0020088012047315973 -0.006567289805200838 -0.0007944797368199758 -0.0006500209040825834
