!Created with skrf (http://scikit-rf.org).
# GHz S RI R 50.0 
!freq ReS11 ImS11 ReS21 ImS21 ReS12 ImS12 ReS22 ImS22
0.13 -0.0023936780071656147 0.0013191677004326025 -1.9401996978144304e-05 -6.518303705871772e-06 2.9048200324794e-06 7.150352482920218e-06 0.0011955379430425752 0.0004817491794968038
0.131 -0.0024238889392939884 0.0014582193206683313 3.5072477597828865e-05 -4.507730285835637e-05 1.7324676451979133e-05 -5.73509283998634e-06 0.0012488318300118697 0.00039579204160286943
0.132 -0.0023690629427880116 0.0015796885694121026 -1.9816227275116307e-05 -1.6891972491349407e-05 7.990034234910837e-06 -1.3786998338315259e-05 0.001230371398956427 0.0004142898548857728
0.133 -0.0023464283246000285 0.0016989209457901056 -1.822843564866816e-05 1.1598821963456517e-05 1.1806703340026653e-06 -3.164481239228341e-05 0.0012955599121225552 0.0003446840066540051
0.134 -0.002387639488124782 0.0018424669913903876 1.5043728875020814e-05 -5.5209422331768535e-05 3.288066622941864e-05 2.6780628190308875e-05 0.001311852940860046 0.00028983397042674127
0.135 -0.0023613758121346757 0.0019244975149797984 -1.9861905934952037e-05 1.9269594601794808e-05 1.6613738308155793e-06 -3.591623484316726e-05 0.0013677558099243208 0.00018673109716884134
0.136 -0.0023272580991611142 0.0020269577119146694 1.2321394646532445e-05 1.673716594975052e-05 -2.3935490584818883e-05 6.916403348474217e-06 0.0013256254510051002 0.0001525066525911005
0.137 -0.002282717383985208 0.002108391221448919 1.3761115521011408e-05 -4.6737435984996976e-05 -2.452322775226439e-05 -7.311419916822164e-06 0.001352044144998072 6.655160865892606e-05
0.138 -0.0023053401252795002 0.0022562015081252066 -9.047576046338886e-06 -1.1371179055291675e-05 4.959361656607089e-05 -5.3003278958732545e-06 0.0014378104659982939 9.64952950887614e-06
0.139 -0.0022889724125819567 0.002380672459966857 1.0403387447446517e-05 -9.39399022289017e-07 3.143600308796639e-05 -2.2993855890364226e-05 0.00145922444862396 1.4900016037318942e-05
0.14 -0.0022493453953615597 0.002487217339066413 -6.619665198467412e-06 -1.9392252193826705e-05 3.11835481013048e-05 -4.1185308516940595e-07 0.001437644896227056 -7.328919094874856e-05
0.141 -0.0021707445500363004 0.0025834136426824655 -4.525880535814215e-06 -5.603042215031012e-06 1.7261311621525106e-05 7.144355064512559e-06 0.0014658230340383427 -0.00012166843175494778
0.142 -0.0021795563383667817 0.0026832887969816897 4.947459507990326e-05 -2.6764328659858717e-05 9.596475628305381e-06 -5.0135619716575217e-05 0.0014768449965002564 -0.00018973958495065816
0.143 -0.0021045677706536315 0.0027798212663483883 7.230230825678892e-06 -2.996304878436849e-05 -3.032140286014389e-05 1.0556248226152076e-05 0.0014549329417779852 -0.0002734153612127146
0.144 -0.0020514599263340883 0.002891023534586159 -3.5020069930564975e-06 -3.573128033319678e-05 2.7480967445997964e-05 -7.888151717946342e-06 0.0014758150381477787 -0.00033203954882813285
0.145 -0.0019897142733721913 0.0030620628258200594 -1.3681130017518552e-06 -1.8461274727781667e-05 -4.723383284423408e-05 -9.986021572349019e-06 0.0014661426963627983 -0.0004812458315688167
0.146 -0.0019476025189863796 0.00315449541387779 5.643312062193775e-05 3.125624634116909e-05 2.8364987526562502e-05 2.541242462914837e-05 0.0015308674549228472 -0.00048503397756283206
0.147 -0.001864953128246845 0.003215494863269005 -1.4034803033831283e-05 -1.2166709857239053e-05 -2.8059749834682904e-05 -2.818245147829025e-05 0.001432097682734236 -0.000544555985231517
0.148 -0.0017638677973331456 0.0033266485385472786 7.164956952208127e-06 3.13368551376338e-05 7.280483813437553e-07 -2.113780131630742e-05 0.0014198341978941648 -0.0006357789990444185
0.149 -0.001660538011294407 0.0034504635354385567 1.5496083213340205e-05 -1.0639277947300554e-05 1.2722685296993007e-05 -3.805858697924335e-05 0.0014374949064024345 -0.0006978707499080251
0.15 -0.0015807446998589163 0.0035687295324759102 1.533497450566833e-05 1.2255277942415354e-05 5.676014165818454e-05 -3.1172411954327536e-05 0.0014033861028652976 -0.0007099164051082783
0.151 -0.0015392289579664851 0.0037138787635711537 1.523632364209891e-06 -6.001031621658131e-06 -1.5392710724036204e-05 -3.815548090505086e-06 0.0013992980337803511 -0.0008544429185736345
0.152 -0.0014368273154118402 0.0037924408714196823 3.857441238251631e-05 -1.0696923293121598e-05 -3.443268258816703e-05 -4.262767710981021e-05 0.0013322359135304253 -0.0009130817511471134
0.153 -0.0013483138337752603 0.003867754039054579 -6.275952945490891e-06 -6.602747248443147e-05 -2.505577988706065e-05 -7.0701491027031965e-06 0.0013082583617701042 -0.0009499603461130907
0.154 -0.0012479530472592315 0.003925316546404236 3.821270061821946e-05 -1.9202830983199335e-05 -6.36424053680224e-06 3.509627243438307e-06 0.00130171529189565 -0.00099180962356134
0.155 -0.0011235026890930486 0.003981561869702753 -4.833438521106535e-06 -3.0131438799477578e-05 3.213089718921025e-05 -9.325506136424868e-06 0.0012736748383670342 -0.001096636539673882
0.156 -0.0010348369355509446 0.004133691926618687 -3.848276467077982e-06 -4.713012335359194e-05 -1.2547226583766288e-05 -6.14300470013898e-06 0.0011643451430868813 -0.0011985806534540293
0.157 -0.0009019816842060289 0.004222253626267369 2.7989063176188475e-05 -6.958952163683606e-06 -1.8506265484205602e-05 -2.970176011050903e-05 0.001196880394369537 -0.001228548301977425
0.158 -0.000860332375910769 0.004249425672898047 8.740195378001205e-06 -2.59160122789476e-05 -8.770378425480282e-06 -3.9675814177562225e-05 0.0011146765123154084 -0.0012578375140063353
0.159 -0.0007029043466092597 0.004329015546408682 4.3553306522896015e-05 2.4285815690537256e-05 3.739216035062176e-05 -4.937198184877923e-06 0.0010772167198753973 -0.0013135051671107339
0.16 -0.000568204485152691 0.004406446710977268 -5.705432836052637e-05 -1.2444745078104328e-05 -9.156545437135777e-06 1.6068230319595304e-06 0.0010625045221033021 -0.001354795915480998
0.161 -0.00041364964771759227 0.004491634121799368 2.6281607894971016e-05 -4.5097605033950355e-05 1.4037000727567554e-05 -6.454438452552505e-05 0.0010015304543177614 -0.0014288818740869054
0.162 -0.0003052578411873268 0.004520373051030882 3.905459517752776e-05 -4.988237003482251e-05 -1.5213825909697151e-05 -2.7340868236971413e-05 0.0009107146580267646 -0.0015161519608266644
0.163 -0.00012369116709207303 0.004603631896019646 2.6483100416306862e-05 1.2769480327839144e-05 2.505332753540433e-05 -5.3602947621274486e-05 0.0008751739785291684 -0.0014907430496816825
0.164 -2.562382162021094e-06 0.004698037402414937 8.584351384170991e-07 5.649044702449325e-06 -3.893696801625045e-05 -1.134909121601065e-05 0.0007766290295008425 -0.0016202694116311926
0.165 0.00010302651002673207 0.004706924279620547 1.8100611482474826e-05 8.098497977977404e-06 2.196051781917578e-06 -2.083936746707457e-05 0.0007367979667353387 -0.0016034107599424685
0.166 0.0002929326833400248 0.0047787135940684485 -6.146489051916715e-06 -7.282648181678388e-06 -1.4749285503976313e-05 -2.513719253155148e-05 0.0006500706052509782 -0.0016342687647369486
0.167 0.00041449008811084604 0.0048441309959614395 1.8282626608166506e-05 1.7632457617822417e-05 2.5778948085138252e-05 -1.389345845992018e-05 0.0006024259032438222 -0.0016590217018794245
0.168 0.0005512141418606196 0.004858558384124245 2.8827417668159427e-05 1.6711063402858274e-05 1.5201723056916833e-05 3.378962642112305e-05 0.0005442907519933418 -0.0017031628157003582
0.169 0.0007302538436479078 0.00488624256147996 -2.8924071935044296e-05 1.718666201015593e-05 -6.230807564799094e-06 2.3490554844361408e-05 0.0004739335372954763 -0.0017496443773286304
0.17 0.0008923391737922984 0.004946254418968724 1.0923198832281593e-05 1.0763581392887527e-06 2.4876843336292524e-05 -2.0505462902179534e-05 0.0003563446115221988 -0.0017750156796745103
0.171 0.0009673083150613943 0.004911973912941597 5.7632161850579725e-06 -2.544557178356733e-05 3.448259829796723e-05 -2.044105449298802e-05 0.0002938220271740328 -0.0017841945734680751
0.172 0.0012570740809497401 0.004973896897491829 1.944621543964309e-05 -2.516471739186048e-05 6.454008424681061e-06 -1.4162028951214546e-05 0.00023717891710926684 -0.0017892967651139439
0.173 0.0013086605605703966 0.005006669700265011 -1.3514755041598611e-05 -4.4672753857164534e-05 -9.776033753168657e-06 1.276191982559772e-06 0.0001502714990359549 -0.0018220072863962707
0.174 0.0014689863299515138 0.004946827537477298 2.8062100526184565e-05 -1.6576905491835845e-05 -3.7701367081856364e-05 -4.421582796489044e-05 7.446828574271495e-05 -0.0018255429374192927
0.175 0.0016379269918324372 0.00495353995717438 -2.8635050147585544e-06 -1.032273256460537e-05 4.982344528341035e-05 -5.1918551165143344e-05 -2.5869441275714112e-05 -0.00182413593487785
0.176 0.0018196287092663386 0.004975101560812555 -1.3104938377666158e-05 -3.645338343221659e-05 -5.666420875576069e-06 -1.2265015157203614e-05 -9.453705519466456e-05 -0.0018062306306262114
0.177 0.0019706775048720995 0.004982920594490094 -2.394409874123061e-06 -1.9973559868750776e-05 -1.1994367160581803e-05 -2.9007293276615045e-05 -0.0001759448788611578 -0.0018483892327687194
0.178 0.002140184745993428 0.004901057219341098 3.611832546967817e-05 -1.2902514634475407e-05 2.369781293940509e-05 -6.368694241706939e-05 -0.00025621006203470516 -0.0018212274132534813
0.179 0.002318807552435888 0.004904436758756361 1.6351904185086937e-05 -8.2875257841308e-06 1.8408770656486724e-06 -6.473427692332217e-05 -0.0003569807601779029 -0.001804304887728387
0.18 0.002499749518695242 0.004860888519387154 4.257392854531543e-05 -7.118464734842187e-06 -2.3318594753428472e-05 -9.277386099754794e-06 -0.0004053704129824022 -0.001779078679533758
0.181 0.0026127835301547795 0.0048043346966495214 -2.072877469754984e-05 -9.13775259757785e-06 2.3416289527967398e-05 2.5944108589701227e-05 -0.00045554974368394486 -0.0017226647423227216
0.182 0.002767054880072435 0.0047847661799986915 -1.1030795880747331e-05 1.1633560513432372e-05 -1.3340521742634898e-05 -3.4305094750406933e-05 -0.0005020665111130208 -0.0017608777603895511
0.183 0.0029260125890885674 0.004700764370736868 1.9427373719529665e-06 -1.0594124043899537e-06 2.44696216669649e-05 -2.970052334355228e-05 -0.0005920250634005004 -0.001673640111062778
0.184 0.0031263343545988825 0.004717433968782239 1.410974625197376e-05 -5.2259044771465366e-05 -1.7406986630249606e-05 -3.4883230190410635e-05 -0.0007196379682546405 -0.0016765782984909364
0.185 0.0032583070149973642 0.004654357650282719 7.772932575144914e-06 -5.143406768919901e-05 -1.0701796544988625e-05 -1.990073848346022e-05 -0.0007320479454163689 -0.001676401476322704
0.186 0.0034290945173061243 0.004507255584236804 3.9882870891696505e-07 -3.899802479823412e-05 -6.144255198059095e-06 -4.940041994895962e-05 -0.0008241321267781867 -0.0016470437854273737
0.187 0.003579473792680275 0.004439124142198862 -6.857155624153519e-06 -3.4958783722365935e-05 1.017736114516894e-05 -9.419443322716278e-06 -0.0009147006644781495 -0.0015616053428368832
0.188 0.0036722976878511985 0.004394697053243553 5.99322218701731e-06 -3.6101299172635604e-05 3.057270061646877e-06 2.7762678752187565e-06 -0.0009396048115843832 -0.0014916611275037652
0.189 0.0038564896093476295 0.004285121471154308 -6.380146406361553e-06 2.666215768375943e-06 2.401112660048111e-05 1.963429744244538e-05 -0.0010005179762130117 -0.0015224191358151182
0.19 0.003994286703240236 0.004216290334066523 -1.4134899119291287e-05 3.849474907954234e-06 1.2489064239314892e-05 -4.1785494003212523e-05 -0.0011001105898846004 -0.001456794002018307
0.191 0.0041349982482017725 0.004135562109566819 3.28027434444572e-05 -7.736413863591427e-06 3.9876984550739265e-06 -6.873523861876922e-05 -0.0011655243827168934 -0.0013798223545020516
0.192 0.004242529214092278 0.004038672201898366 5.3899582231117255e-05 4.571225097945938e-06 -1.2877863878099639e-05 -1.6520026953554925e-05 -0.0011933985320721058 -0.0013337916781328792
0.193 0.004395034318383944 0.003967083675302709 -2.5542709158216288e-05 3.0406919493307022e-05 -5.648988214090588e-06 3.104153417743558e-06 -0.001255120393199835 -0.001306471865687757
0.194 0.004537010792912114 0.0038183508606294218 2.1314883039989982e-05 -2.502726675195596e-05 2.9792909481505815e-05 -3.755181875673691e-06 -0.0012789096879673096 -0.0012176232444274632
0.195 0.004683041957012337 0.0037034748909997536 1.1935010213059904e-05 -3.0444780446924238e-05 -1.1920336999431901e-05 -1.313046048673556e-05 -0.0013570550540198587 -0.001144075358526483
0.196 0.004790073402222112 0.0035667543294411164 4.330936722205428e-06 4.950048394236767e-06 1.7702488193056995e-05 -5.685655627156966e-08 -0.0013691919779613658 -0.001129615761747587
0.197 0.004904167054036229 0.0034659226051945305 1.0498077112629926e-05 -4.142331806413958e-06 2.835885434433323e-05 3.406617371547024e-06 -0.0014236516971395366 -0.001049846282139633
0.198 0.005004024993973379 0.0033248629628287066 1.7407947621500354e-05 -5.986404780351508e-06 1.7358421057865483e-05 -9.157275691498663e-06 -0.0014887561360595587 -0.0009871387161796154
0.199 0.005117634599981372 0.0032041633122679345 -5.27648544498886e-06 1.4463266543514848e-05 2.6581570880503174e-05 1.9109866220839204e-05 -0.0015312536130599249 -0.0009028212265500624
0.2 0.005229962564940998 0.0030482324237359718 1.886699279080958e-05 -3.1526398847112824e-05 -3.1259392107134e-05 3.223783382992576e-05 -0.0015740879391262974 -0.0008372327363453001
0.201 0.00531861092171525 0.0029062249745741616 1.60082811705862e-05 -8.47504031521782e-06 2.8037326850086733e-05 -1.3566627892161313e-05 -0.0015688048515475294 -0.0008169400145219346
0.202 0.005369253121493524 0.0027681266162114552 9.264159793925592e-06 9.620845676077959e-06 -2.348936590110499e-05 -2.8321353593886944e-05 -0.0015936984035251317 -0.000707478188543264
0.203 0.005508192975963406 0.002616448811707317 -3.997090913476691e-08 -1.0389948757942112e-06 7.841667495492781e-06 2.3607308575713253e-05 -0.0016158855218589075 -0.0006713877146305854
0.204 0.005533274733997042 0.0024807693351856495 4.38596589793695e-05 -9.14154129569804e-06 2.68021767650822e-05 -3.4877552151504557e-05 -0.001570395315395317 -0.0005445656291995871
0.205 0.0056731447403872105 0.0022980627972597556 -3.584672317440318e-05 -5.447308065499291e-06 2.1560459521694357e-05 2.263329616995806e-05 -0.0016512927236316175 -0.000497473850981971
0.206 0.005691372121480584 0.0022074484821010282 2.4547430612158775e-05 -1.7573981083024648e-05 5.88892474860715e-05 -1.2613317813637052e-05 -0.0016470978693097276 -0.00041783145454608227
0.207 0.005810231251158742 0.0020086020317966265 -1.3543306949007726e-05 -3.546439735541443e-07 -1.4134120780390554e-05 2.336048639566229e-05 -0.0016688468518454688 -0.0003706907176720113
0.208 0.005824189943543731 0.0018911868625662727 3.635737762093544e-05 3.5153049623170224e-05 9.093582535813067e-06 1.8257604200235567e-05 -0.0016259689110008487 -0.00027619805642635227
0.209 0.00588434211134143 0.0016696298752020197 -2.6635232657294957e-06 1.1864991600795317e-05 1.684031291027349e-05 -1.18156845425372e-05 -0.0016214766798724428 -0.00023329727319468564
0.21 0.005932610204246295 0.0015618177928254495 2.1333526864582574e-06 -1.7795887021949478e-05 -2.4579595592860956e-05 -3.451019225949893e-06 -0.0016079875356239468 -0.00016546026966977116
0.211 0.005980239065315536 0.0013724362967976887 1.5489510231970163e-05 -1.0116907741577486e-05 -1.9958147302562137e-05 -6.296967101266157e-05 -0.0016255160084865112 -5.2770122447379186e-05
0.212 0.0060856085798139965 0.0011871211211363993 -9.346144843291263e-06 -4.5493074852209154e-05 7.436824332030963e-06 -3.783026527004406e-06 -0.0016428918495528274 4.817694682380782e-05
0.213 0.006062211767181031 0.0010312034207823149 2.9204937645103274e-05 1.2575154897031083e-05 2.805291411959904e-06 -4.2666759121076804e-05 -0.0015973822975804087 6.952499416791265e-05
0.214 0.006091675999362695 0.0008150065720107371 1.7114146146765594e-05 -4.31400557027463e-06 4.023855258285285e-06 -2.1449514683050106e-05 -0.001566643303179982 0.00012007390161159693
0.215 0.0061197447056054064 0.0007177363135325753 2.027955225318641e-05 1.4946254129404527e-05 -2.9485755824193278e-05 -8.263783709027156e-06 -0.001563512984306872 0.00020822660968850467
0.216 0.006155051501025341 0.0005168065738269754 2.3626388178788684e-05 1.5115153149429328e-05 -1.5529294169420993e-05 -1.9983085865983054e-05 -0.0015335825634156465 0.00025985930145074445
0.217 0.006125731797209188 0.00035791382295921685 2.5384314145366126e-05 -2.7873318909559336e-05 1.7542617229238547e-06 1.055376353165308e-05 -0.001461279664534448 0.00033065382997396307
0.218 0.0061558761374486265 0.0002323423519247726 -2.406918826284757e-05 -6.505111433836512e-05 -1.9759445219586596e-05 2.9870961122660375e-05 -0.0014408987026079095 0.0003407384928082038
0.219 0.00615090367728841 -2.653713734301357e-05 -2.792065448106519e-05 -2.193688741007161e-05 -5.89190999783446e-06 -1.2372177279427786e-05 -0.0013982082112214756 0.0004285177240281214
0.22 0.006158104354169815 -0.00012163839321782308 3.04682297259312e-05 2.3789340217604843e-05 3.247203001922055e-05 -3.0694547310909826e-06 -0.0013726869181551627 0.0004770549726635307
0.221 0.006069191506123047 -0.0002280605818329571 2.7142300692479778e-05 4.852967297364315e-06 2.2373081946623492e-05 -4.0518320936995655e-05 -0.0013481174099764881 0.00047346643603384415
0.222 0.0060562442001869145 -0.0004727420737469477 -2.904097705752919e-05 1.389074165648798e-05 1.4143003818327978e-05 -1.5684802602212007e-05 -0.0012987214536392187 0.0005684944009142963
0.223 0.00605298663099537 -0.000613177490628663 8.691734875890284e-06 -2.2837992018455224e-05 4.433235062301711e-07 4.792380895497198e-06 -0.0012482432438637974 0.0006443957122230551
0.224 0.006002802684869908 -0.0008122046194352425 2.778189112238165e-05 -2.7527359342747574e-05 2.64447759198786e-05 -2.7673632720963833e-05 -0.0011967815357483795 0.0006557278805853213
0.225 0.005984776094779459 -0.0009541703181056759 -2.274560497060648e-05 -3.3682104588170285e-05 6.47440570783738e-07 6.35153609434181e-06 -0.0011737580631976789 0.0006911807765394917
0.226 0.005940987467128681 -0.001068346056856429 -4.2807218783603564e-05 3.181137461863154e-05 1.8978414273474036e-05 -1.7799529444104145e-05 -0.0011087537303728207 0.0007206780864946096
0.227 0.005903873991725225 -0.001216673985621886 1.2122679526268137e-05 -7.254825022564913e-06 8.068788909239418e-06 1.3273476395775984e-05 -0.00106848565665364 0.0008136456520466838
0.228 0.005838341541415302 -0.0013553836602850985 3.494015573679055e-05 -3.633495801330318e-05 -9.88951389038787e-07 1.0495616780641806e-05 -0.0009909775529092502 0.0007610480724561263
0.229 0.005757846923518295 -0.0015564925078893398 -9.200384913672714e-06 1.0757407050754896e-05 -1.2058515145260017e-05 -1.288530592826602e-05 -0.0009734239696234257 0.00080131480161549
0.23 0.00569275103865757 -0.0016974631447593382 2.7869067194126603e-05 -4.413645249865195e-05 3.533646076862664e-05 -3.3885060191296126e-05 -0.0009066348428541845 0.0008475331679593879
0.231 0.005598195231122992 -0.0018511931841898956 2.725276199496949e-05 -1.578769756427472e-05 7.895462853684133e-06 -2.4799282621181918e-05 -0.0008778982366718952 0.0008349162306118285
0.232 0.005494340960191613 -0.0019640053920649534 2.8569473589002285e-06 6.283751627577598e-06 -2.1470472473030073e-05 -7.629460860839221e-06 -0.0007974156949361261 0.0008103502533111272
0.233 0.005523521926144954 -0.002117905393521053 -7.495215944819239e-06 -2.832673275186879e-06 -1.6195084786055946e-05 -2.605811207126176e-06 -0.0007141950916731076 0.0008886268660184875
0.234 0.005371008033375889 -0.0022614057336093657 -1.3085345088388304e-05 2.9440356461348197e-06 1.2254806464472436e-05 1.5325812818686408e-05 -0.0006765406736807542 0.0008567451429213535
0.235 0.005298816417996173 -0.002330241542448145 1.9706019946128036e-05 5.046544667901306e-06 2.902219009221395e-05 -7.77202778631267e-05 -0.0006477444810652836 0.0009057510683514963
