!Created with skrf (http://scikit-rf.org).
# GHz S RI R 50.0 
!freq ReS11 ImS11 ReS21 ImS21 ReS12 ImS12 ReS22 ImS22
0.13 0.05859112858699924 -0.17499147282284758 2.847655030967296e-05 -4.2348882377238884e-05 -6.082360585463289e-06 -1.5116646625552266e-05 -0.050486636943391214 0.017137903926123178
0.131 0.050949303688139505 -0.17897005877346078 -2.2439097232380293e-05 -4.0894461560471814e-05 4.25239674082843e-05 4.323141457263378e-05 -0.04962919330824684 0.020327542288893215
0.132 0.04264137113233865 -0.182485013101649 2.0823249545751346e-05 8.007552340768766e-06 2.969805266168605e-05 -4.403241139782498e-05 -0.048736971919383004 0.023409703168958913
0.133 0.034261122584009214 -0.18549159510978527 1.087757297340165e-05 -1.632879610316539e-05 4.2696192532743796e-05 2.754608229657311e-06 -0.047589060238707896 0.026625587891454954
0.134 0.025683655792809602 -0.18833553955099877 2.2033659331607798e-05 2.7272199970682767e-06 1.3026095996534618e-06 1.632355358350958e-05 -0.04620499317768188 0.029542224819284466
0.135 0.016819519717099916 -0.19075007271875283 -1.446566132128515e-06 7.95623915170769e-06 1.8536921536591706e-05 -3.1930687189395165e-05 -0.044673854979616776 0.03254129251868199
0.136 0.007996791316088209 -0.19249143447533557 -1.1880923746077455e-06 8.495739695828524e-06 7.120012178119436e-05 -2.3892067612635936e-05 -0.0428990191466998 0.035392705312060325
0.137 -0.0010717494035024757 -0.19407357880102702 4.837285816004399e-06 -1.9189367856658758e-05 2.7531712272380556e-05 -5.0151882720984836e-08 -0.04099755525302325 0.03831453436023673
0.138 -0.010048240653389474 -0.19529831681892953 3.910909117219608e-06 -2.5998728720477608e-05 8.460109565885694e-06 -3.6644760478434494e-05 -0.03879808239151915 0.040985262018908994
0.139 -0.0194890606874142 -0.1956871817066723 -4.0884300532841564e-05 -8.352843674336394e-06 -2.568858837430274e-06 -1.0850459033786897e-06 -0.036639760258253155 0.04352074856491303
0.14 -0.028361341734986154 -0.19588689257384756 6.943374667047834e-06 -3.113865112527124e-05 -3.6884957577751517e-06 1.9758469375396656e-05 -0.03414754275744551 0.04604263143752919
0.141 -0.03811223326749887 -0.1959278065774631 -9.847582189954643e-06 7.921197227552721e-06 3.197371166686403e-06 -7.243852016071779e-05 -0.03148787921615054 0.048393128171069694
0.142 -0.04781575417116648 -0.1952338932000168 -1.6661857290533188e-05 -3.847736772572575e-05 1.3924084506437349e-05 -2.0307088285311577e-05 -0.02878850833604985 0.05048122387324924
0.143 -0.057142988965538405 -0.19378445393527463 3.2939010423018566e-05 -2.052692512883621e-08 2.649984920594932e-05 -3.2992776623758574e-05 -0.025802236443340412 0.0525111532599094
0.144 -0.06668050046481194 -0.19241753469710618 -3.4280001039784e-05 -6.078231529173819e-06 -1.5066490943146297e-05 -6.439033094173637e-06 -0.02270187888705491 0.05439763419823975
0.145 -0.07616082774489041 -0.1903704832863192 3.455404247816475e-07 -1.9491381526836657e-05 8.145371577895896e-06 -3.588369234155812e-05 -0.019513968015226 0.05605124784047547
0.146 -0.08566551385354056 -0.18777222650724126 1.8672524771087347e-05 -1.8822067121401387e-05 -1.0315642985626551e-05 1.2856615610234197e-05 -0.016257373576176102 0.057509204135537666
0.147 -0.09483633540318002 -0.1848476201481693 -4.5307579925093233e-07 2.3731362501320262e-05 1.684027465084661e-05 -1.4226806328229196e-05 -0.012851957778623632 0.05878648507912202
0.148 -0.10425198653677768 -0.18116825879536705 -2.6980802426939717e-06 -1.410099853424173e-05 1.713287827884591e-05 -3.87938490112441e-05 -0.009318152584539816 0.05986222356343603
0.149 -0.11336019737414905 -0.17727237645542185 6.491102106514066e-06 -1.33711450611194e-05 3.4570637874242565e-05 -2.6827817617914374e-05 -0.005662965993992531 0.060676096425010095
0.15 -0.12241455693780517 -0.17273741092160047 1.1530487510874206e-05 -2.8118601852415924e-05 2.8509443704569977e-05 -1.200245354962176e-05 -0.002093062861146212 0.06137713317747762
0.151 -0.13126583549080542 -0.16801260772928966 -1.2487608754178777e-05 4.114593138479655e-05 1.6088446307675827e-05 3.44527120418786e-05 0.001727508575710793 0.06178539409747968
0.152 -0.14024984006629473 -0.1624989208230724 1.4726611717242025e-05 7.206414605704573e-07 -1.666911404499921e-05 -4.6577041519699745e-05 0.0054748122711680315 0.06204146993544291
0.153 -0.14863295376251265 -0.156797638467671 -1.4307605294965125e-05 9.358107351413092e-07 -1.700726337321914e-05 -1.9607775501001727e-05 0.009225427164728222 0.061988939605189024
0.154 -0.1569075757992006 -0.150452528158396 6.472002500467369e-06 -3.935055755628823e-05 1.2660984996674615e-05 4.503414135746923e-06 0.013069291629683226 0.061734489236618346
0.155 -0.16470709403734562 -0.14357245445547973 6.056266816986628e-06 -3.488900443586373e-05 4.944130001901324e-05 2.381753575297657e-05 0.016920221233506373 0.06123926592055569
0.156 -0.17239121823069103 -0.13674279214677423 9.433379280018509e-06 -2.2312806103906193e-06 -2.4866670419067784e-05 3.829131454504697e-05 0.020710685209188447 0.06044254924981525
0.157 -0.17987517156971516 -0.12911958266980686 -1.3428450009682595e-05 2.8312125706113114e-05 1.3649947484391266e-05 -3.0006271782487368e-05 0.024497443803946663 0.059566616531251206
0.158 -0.1866440283491 -0.12109953052610237 -3.666673703704848e-05 -3.3439920829376214e-06 3.9436055870137055e-05 7.168343014817503e-06 0.028236266391328188 0.05826550189814322
0.159 -0.19344775329404207 -0.11267404693639461 -5.2969105963997936e-06 -1.0494632955187418e-05 -1.145393482772546e-05 -3.94041245790421e-06 0.031948593779122285 0.05677562038034043
0.16 -0.19967974958260964 -0.10418905642159143 3.6818182360695017e-06 3.510356296869923e-07 3.6267505241412696e-05 -2.8501162341029334e-06 0.035524710643601194 0.055204528677530555
0.161 -0.2056274020390335 -0.09482952982978089 3.6645917884907615e-06 -1.987932144447217e-06 3.3279059231870024e-05 5.801345726833186e-06 0.03908877324875587 0.053177194599039156
0.162 -0.2111357571343677 -0.08533787357567825 -2.3869562176551328e-05 -5.61366592302199e-06 -3.140670161106541e-05 -2.9763178828754006e-05 0.04256552272275052 0.05106960862175681
0.163 -0.21593350017841004 -0.07563866940755465 5.95897879458077e-05 -8.206817308729971e-06 -1.2738487904808886e-05 -4.7475942881492015e-05 0.04591996821107226 0.048691162363353746
0.164 -0.2209186806091876 -0.06560295854003385 -4.289222335130721e-05 -9.300603560171518e-07 1.3228807737959203e-06 -2.8168457499130292e-06 0.049081047007738986 0.046123556409576064
0.165 -0.2251084397679037 -0.05524637343870147 -1.5183572801247564e-05 -4.0316770553360266e-05 1.151175650430378e-05 1.3587900810237605e-05 0.0522414661135594 0.04323830048736591
0.166 -0.22885188129505582 -0.04474342543046985 4.489719921556679e-05 1.3557601644040514e-05 1.1978260671850172e-05 -6.704126003074717e-06 0.05503498539955965 0.04020638947699942
0.167 -0.2318082544109895 -0.03396567163467935 -1.6410444918952775e-05 -2.9486588711072393e-05 -1.2862505241936723e-05 -3.3601722855910505e-06 0.05779926003244917 0.037033054056463635
0.168 -0.23487530631516026 -0.02277754574961582 1.590361283258021e-05 -5.0106092392707035e-05 7.782653938735027e-06 1.323310706428298e-06 0.06041419529284865 0.03357029487308902
0.169 -0.2367631300181376 -0.011404906922814751 2.786831673172519e-05 -9.277624886269827e-06 -2.9350321197086122e-05 3.986251403913502e-06 0.06277765927030013 0.030023566316577485
0.17 -0.23809019641673831 -0.000389574520562537 -1.5168824428218269e-05 2.085416716425403e-05 2.890330705236568e-05 -1.1093244428841095e-05 0.0649253813485313 0.026277908995789117
0.171 -0.23906781896362883 0.011123873134466855 2.1153171833309946e-05 4.568800472694194e-05 -2.6029110117844037e-05 -4.438218090383766e-05 0.06675211231307063 0.02230838015785437
0.172 -0.2395988914099546 0.022510329981775556 4.103601260770265e-05 -8.800724118586977e-06 -3.227405289387548e-05 -1.250421429019797e-06 0.0684371096232976 0.018304541808712035
0.173 -0.23926144449976727 0.03402531854348765 -2.384298399115949e-05 -2.4289282119609162e-05 2.414936089049027e-05 -5.2828592521182316e-05 0.06989060411440141 0.014205138473246231
0.174 -0.2383467982346978 0.04518421511512294 -2.1267357346839204e-05 -1.5086880824727993e-05 -1.1599188857699685e-05 -4.3621679354249086e-05 0.07098403213770411 0.009978622669448073
0.175 -0.2374257134041797 0.056898161116270496 2.1068539734610194e-05 2.6436803598888085e-05 2.2416489932625153e-05 3.249502600063679e-05 0.07185987919482784 0.005661040900557649
0.176 -0.23512005668594094 0.06800980910154948 2.567135772857841e-05 -2.495511187688204e-05 5.3242926899606435e-05 1.9799214243268076e-05 0.07249426805216229 0.0013015450496499897
0.177 -0.23328600649675552 0.07997117238292858 2.183212860152166e-05 -2.651578205160908e-05 4.282412759854005e-05 -6.50797561011783e-06 0.07282908862581682 -0.0031003502308735126
0.178 -0.2294090500674443 0.09076434288291525 1.3644414566070651e-05 4.21495798094794e-05 -1.6856244935107772e-05 -4.423135730781708e-06 0.07287248926205113 -0.007537417996842654
0.179 -0.22580510557606154 0.10205130252997864 4.52672675016174e-06 -2.3527690660507108e-05 1.0545592001100236e-05 -2.2466955329806634e-05 0.07256217912453307 -0.011927345544460372
0.18 -0.22211853582053204 0.11290812906168098 1.5426569637452765e-05 -1.225540039956941e-05 -3.161484749273631e-05 -1.2713093333261252e-05 0.07229045901802875 -0.016399113068077457
0.181 -0.21742343368847705 0.12352154381535116 2.943276818212495e-05 -3.146461762696464e-07 8.820123455187652e-06 -2.1146711410069794e-05 0.07151770278599963 -0.020885191014246112
0.182 -0.21265360507646355 0.13401233007747124 5.767825568790575e-07 -1.1485031493126452e-05 4.2232867809244026e-05 1.1021671457586132e-05 0.07051024459895258 -0.025416206877338525
0.183 -0.2071211618787366 0.14439737424194102 5.94730978710431e-06 -2.8082798266447405e-06 4.0090451552950805e-06 -5.244809981737305e-05 0.06912044614338249 -0.029783051664332313
0.184 -0.20092997065253962 0.15452751313236834 1.617231263118462e-05 2.4082542315240987e-05 1.796819784760228e-05 1.0108990224788157e-05 0.06750030454276623 -0.03415435035669147
0.185 -0.19464878902001298 0.16464572387649698 -2.9735137450605164e-05 -1.3551401598830683e-06 -2.827915068660191e-05 -4.524923635221251e-05 0.06561125665533248 -0.038378836728940276
0.186 -0.18752214189900815 0.17424679808215898 -1.816042045012583e-05 4.7512723815514715e-05 1.6570553328846005e-05 1.3033886866919579e-05 0.06352149103848911 -0.04254714038282723
0.187 -0.18002904894041719 0.1834989451681591 -1.3283009091506852e-05 -3.923591309816279e-05 3.287204128500297e-06 -4.1658952633533594e-05 0.061054071618897046 -0.04654824496217302
0.188 -0.17189784610908684 0.1924895731468037 -1.5567412190116507e-05 5.673463114325257e-05 9.089543208927215e-06 1.4118609753291426e-07 0.05834237778372946 -0.05032648117820886
0.189 -0.16377815474329566 0.20123727472234523 6.661845418150123e-06 -4.726120845760292e-05 1.1604627573692404e-05 -9.638090190167778e-06 0.055481653248606315 -0.05393000438412731
0.19 -0.15526137465284093 0.2090774854925354 8.835080858129733e-06 1.6550981112506442e-05 3.6167131142455137e-06 2.4968009614862968e-05 0.05232306877082692 -0.057433828570039425
0.191 -0.1457913025835743 0.2167815173127053 -2.390220256238631e-05 -1.1106126912843461e-05 3.7827859287826654e-06 -2.1933872661927392e-05 0.04901473256560379 -0.061002901715901815
0.192 -0.13614823811891177 0.22408967957952589 3.7756230641114112e-06 -7.223162585191869e-05 2.1727181837241933e-05 -2.7163615710782044e-06 0.04538744700459949 -0.0636400310426677
0.193 -0.12668977700153944 0.2312239426943105 3.443968019636403e-05 8.259854927144162e-06 2.330956578287886e-05 -1.019108051081591e-05 0.04166610820984309 -0.06696891205463043
0.194 -0.11647475889377429 0.23814896271119848 1.7917205072465348e-05 -3.757698601869915e-06 3.165187572145067e-05 -2.1742612985886147e-05 0.03771233388781205 -0.06944618738904725
0.195 -0.10587470965527127 0.24399539540056883 1.9173240257866137e-05 -3.83442133409027e-05 3.3447037719663005e-05 3.027934158875189e-05 0.03324607484006033 -0.0726366583256685
0.196 -0.09500161743727856 0.24926385505107868 4.0169563943010475e-05 1.778464841294477e-05 -4.254915678912373e-06 1.3921336926159293e-06 0.02936039841963304 -0.07384096250259797
0.197 -0.08387525121713688 0.25494399102306753 -3.839111859404609e-05 1.3671642126828084e-05 6.489791336032239e-05 1.4079158995380487e-06 0.024956340136598993 -0.07606590582328764
0.198 -0.07236528001348419 0.2594291224800798 4.741649215545548e-06 -3.065407231234049e-05 -7.202683596716924e-06 -8.428603486244714e-06 0.020443125238171784 -0.07775607379155348
0.199 -0.06079627864530289 0.26366564274415977 4.504544956369313e-05 2.6966862486665196e-05 5.460004889833759e-06 1.029331081782711e-05 0.015856927125843877 -0.0791539361593125
0.2 -0.04889110669303522 0.2681780651740682 6.863710217269499e-06 -3.820967088533266e-05 -2.318610160205237e-05 1.6648443062266767e-05 0.011147835997653606 -0.08015347404736466
0.201 -0.03726272500585639 0.2706247659858176 4.190816325412009e-05 -2.6552063917657553e-05 -1.093932666516538e-05 -1.9031277469139995e-05 0.006369219406368725 -0.08099920720028364
0.202 -0.024713947290268108 0.2732529546862956 -1.0267353115613684e-05 3.275804830819883e-06 -1.2261624565962767e-05 -2.2697368811042846e-05 0.001375984838932713 -0.08170304426707602
0.203 -0.01251805163016465 0.2755031084081209 -1.572396747026461e-06 5.964123021915536e-06 1.1855038027075152e-05 -5.514471213871115e-05 -0.003414541246925905 -0.08178834365364974
0.204 -0.00030248510557414737 0.27729780865276393 2.407286475651092e-05 2.360406451437283e-06 2.6174554734529997e-05 -7.819298421485996e-06 -0.00826035395021123 -0.08180983233076854
0.205 0.012536448488094935 0.2784196847846208 2.0193775767001993e-05 -5.818418841543762e-06 7.793386356786361e-05 6.720304931147046e-05 -0.013158964267551886 -0.08142880147273564
0.206 0.025140959289056204 0.2788218356143859 -1.6498335283133516e-05 -7.712480045526516e-06 3.74270543110975e-05 -5.1580447466942125e-05 -0.018043654660496518 -0.0808158367726811
0.207 0.0380486366170012 0.27886463202598083 3.3964862036483274e-05 -4.35455907172955e-06 4.118909523136514e-05 2.337879492638692e-05 -0.022930775782897823 -0.08005150463856993
0.208 0.0509330654242677 0.2780890248159287 2.641333591646592e-05 -2.1404010014580504e-05 -6.618368983180382e-06 -1.509439779807542e-05 -0.02762964621078661 -0.0786708502513361
0.209 0.06373264343309172 0.2768312645396575 -4.2909624954728876e-05 4.459213163361826e-05 1.591003261312902e-05 -1.447146492141769e-05 -0.03238095139325948 -0.0772345691567405
0.21 0.0764494204184487 0.27530324383845095 -1.613356858331026e-05 -2.862973318979181e-05 8.913694674909385e-06 -4.9370263106356204e-05 -0.03704706658744498 -0.07546093205996533
0.211 0.08957019671330936 0.27306915314775837 -4.045754915517272e-05 -7.282622527770511e-07 1.0805202363416886e-05 1.6025262386022804e-05 -0.041749872026156494 -0.07353508324460478
0.212 0.10206160496975913 0.27005365413090676 9.292055394399969e-06 -4.7925581315766905e-05 -1.8213808322966728e-05 2.4965207764617646e-05 -0.046082611290902416 -0.07110949769547947
0.213 0.11528415620722933 0.2664259002373034 -3.505843264086318e-05 -3.6652519608169724e-05 -9.623843505745861e-06 -2.3754544731211456e-05 -0.05045588398058845 -0.06846991943040281
0.214 0.12821108847983487 0.26244014193739074 4.176338308592043e-05 -4.662209033224534e-05 -9.039033684729542e-06 -3.482493017747818e-06 -0.0547331192293105 -0.06577293005998078
0.215 0.1409316725765355 0.25738363873757947 3.1942219403074295e-05 2.0476722944942766e-05 -1.1451155165635812e-05 -4.4769060084467246e-05 -0.0586389913972419 -0.062488563184690774
0.216 0.1532909976900258 0.25215037947263125 -1.3451717914949115e-05 -3.8748818161227795e-05 -9.651845910804356e-06 3.8532328802397184e-05 -0.06242861386871441 -0.059274907024411815
0.217 0.16576444728821746 0.2459366981114913 2.9202802092149836e-05 1.3639917711856915e-05 9.006954296526526e-07 -1.8232620065589004e-05 -0.06613536874700547 -0.05575591460816609
0.218 0.1778041581759991 0.23943396343537848 4.499161307471829e-05 7.8000711522553e-06 1.0596071616383677e-06 -9.626683644279684e-06 -0.06969175120613297 -0.051908206482352184
0.219 0.19011557140593546 0.2326250918885863 8.594586736804871e-06 -1.7534958205795276e-05 -1.5284326621813517e-05 -1.0689781938693539e-05 -0.07301635305033556 -0.04791433720402285
0.22 0.20157617428430735 0.2246572361944809 3.988036182669127e-06 -4.8924014547987185e-05 -1.3511763727348409e-05 -8.301134803525712e-07 -0.07591747900399774 -0.043693063552811565
0.221 0.21271177319337364 0.21611787214890038 2.0265669337971453e-06 1.4830392079626431e-05 -1.3992107002952047e-05 -2.5893371192914886e-06 -0.07870172951791694 -0.03927943977664163
0.222 0.22386504535245427 0.20691041697920276 -3.1926102567842996e-06 -3.084078342979289e-05 1.563310561131056e-05 2.6317705049349374e-05 -0.08125556585659124 -0.034674151295747566
0.223 0.23467090331552262 0.19756750333105474 1.9281906477717538e-05 2.4283127345896734e-05 5.759636978497044e-05 -7.010824786192859e-05 -0.08372509787764834 -0.029892945718887832
0.224 0.24513093964549856 0.18745912879232488 1.9900108433639132e-05 -1.8728670815145535e-06 3.238357365661867e-05 2.1896039170102547e-05 -0.08555310680264931 -0.025025077183018343
0.225 0.2545971615767659 0.17637618984271997 2.9399538615308832e-05 4.7274710186215366e-05 3.102465905597189e-05 -7.96205854896968e-06 -0.0871429363413721 -0.02001843244077818
0.226 0.26392466269568515 0.16515621323552387 -1.5904145658086608e-05 -2.4556157771857373e-05 4.0802580170816554e-05 1.6707391354476747e-05 -0.08876006607102387 -0.014865783019774682
0.227 0.27277027629949524 0.1534862878804688 1.9508469149395233e-05 2.3185011918681397e-05 1.086652859097818e-05 -2.3956865895392632e-05 -0.08992899232322171 -0.009625519731051503
0.228 0.2806671374631085 0.1412220065918763 6.618005849114523e-07 1.0992520073854963e-05 4.203265313653604e-06 -2.7546330784069562e-05 -0.09062985873954373 -0.0043161062908994244
0.229 0.28802220755400176 0.12864183648809224 1.3206975878589284e-05 2.16984493899677e-06 5.383711624916591e-05 1.2676473872058152e-05 -0.09116216069513206 0.0009820325831407166
0.23 0.2952118818222328 0.11528847039355447 2.0242804250411745e-05 1.2806617587581066e-06 -6.9303234306915745e-06 -4.833116754688689e-05 -0.09134436735485213 0.006450003684791133
0.231 0.301969401307764 0.10198274268244248 1.9683621466641455e-05 -4.254440071717824e-05 3.8254604057494485e-05 -7.126518308064486e-05 -0.09111095060804755 0.011780192241684704
0.232 0.3068876510845293 0.08823641801565828 1.1327919593451565e-06 1.3885056783254128e-05 6.079561005266392e-05 -6.439906223508984e-06 -0.09068738433619448 0.01738414095235585
0.233 0.3143209300140818 0.07369900502662481 2.2115385693126482e-05 -1.2145879953722733e-06 2.595919826745505e-06 8.068307796744158e-07 -0.08991604707211524 0.022692258330012198
0.234 0.31593937907366604 0.05955069742999759 2.7970191928988314e-06 -2.0040600271129523e-05 2.564468353010916e-05 -1.1018861117524641e-05 -0.08878754022413737 0.028087802483305817
0.235 0.3212967539793162 0.04455514254616181 2.0312759786561775e-05 -5.17946303466728e-05 3.173425407413011e-05 8.958160549321755e-06 -0.08735668103944513 0.03342380109919962
0.236 0.3240445826378257 0.029767159703733476 1.2490613332191693e-05 4.323736829706807e-06 3.93579869964605e-05 -8.783889145675952e-06 -0.08554688273714262 0.03864836915980433
0.237 0.3260196459355113 0.014450066091881155 1.6388284215658762e-05 2.1638823211883083e-05 4.574203788369484e-06 1.0038987836921687e-05 -0.08339324124741715 0.04381724907682922
0.238 0.32710166433241317 -0.0008075339824962516 1.6912738614532204e-05 -6.148972273346541e-05 -6.874193769626488e-06 -3.0018067869958053e-05 -0.08101977667853848 0.04907336078016434
0.239 0.32778721348687573 -0.016174558605684522 -1.9878053256269164e-05 2.8489792308938226e-06 -1.999247251098658e-05 -1.2221424937567547e-05 -0.07817981742344775 0.053731499862086265
