!Created with skrf (http://scikit-rf.org).
# GHz S RI R 50.0 
!freq ReS11 ImS11 ReS21 ImS21 ReS12 ImS12 ReS22 ImS22
0.13 0.0027198465013658444 0.0005744156563216095 4.681233014808365 0.21209183548441685 0.002123282034829293 -0.0001362235621409916 -0.00013377554331119908 -0.0008803274591635207
0.14241875 -0.000559468303653566 -0.0013675226899439962 1.9788681491291416 -4.229384226433352 0.0013916302342658522 -0.0020596914385735644 -0.0002736672173628062 0.00044774833256374703
0.1548375 -0.0010257863221048232 0.0035699921110686366 -3.102196509587866 -3.4293188026193944 -0.0008687399844364099 -0.002775069651566472 0.0010940094106252566 -0.00039968681128023896
0.16725625 0.004041460553124771 0.00229328222649216 -4.331681930618879 1.535258566198105 -0.003168222384379754 -0.0011619526412392817 -0.0003693019732897774 -0.0013730103581900278
0.179675 0.0012274232513473798 -0.00027547328435742566 -0.2657363144545799 4.569672529345394 -0.0032624964154078975 0.0020740642894126193 -0.0004447346414270823 -0.00013802729154709014
0.19209375 0.0030011283960943123 0.003938318592314462 4.063382777861173 2.0003097438474073 -0.000395746371002164 0.00432304930747311 -0.0001790095438227675 -0.0012263634261817811
0.2045125 0.007970856962107217 -0.0019073123292578454 3.4086129854879643 -2.9591882858781906 0.003578031607606459 0.0033222310990556132 -0.0021455747478554446 -0.0004261731199931
0.21693125 5.3863537481332305e-05 -0.006030795842959856 -1.3899575071117123 -4.263010466208878 0.005412271687248636 -0.0009094973498217514 -0.0006866012645660776 0.0014800540597429696
0.22935 -0.0013153914899710812 0.0018435790767375958 -4.465273259178766 -0.3716486634929341 0.0029020030539779152 -0.005364869166652025 0.00020958224781095908 -3.8444862872510266e-05
0.24176875 0.005009734695803663 0.0001668439489411435 -2.0736044392864317 3.9386667401752353 -0.0026935957319935157 -0.006144375465705862 -0.0010904533721279787 0.00031461433737985626
0.2541875 0.0018164460885917513 -0.003153620484360222 2.7825986753858754 3.43909870333519 -0.007303343512102286 -0.0017575911475412403 -0.0004022359761898894 0.0009494076974862779
0.26660625 0.0025513235663836096 -0.00034066710091436027 4.2365533504006665 -1.2225523323135967 -0.006365155968809349 0.005111432330820742 -0.00038992492701019017 0.0009451873197674885
0.279025 0.0038296614029547714 -0.004847697329594053 0.5244667409554227 -4.362384987557176 0.00016501862419210367 0.00889768177683923 0.0004569911940597088 0.001452152132046079
0.29144375 -0.0022162217796108507 -0.003841632412191538 -3.7898551027399887 -2.17843826037129 0.007703125803395427 0.0057285092126676 0.0007580298261544402 0.00019447611994958898
0.3038625 0.0016125608264885244 0.0008465853127805213 -3.4678426468539327 2.6206281083713896 0.009974766535825855 -0.0027838319937739217 -6.49131799515245e-05 0.00084392293172086
0.31628125 0.0027067798270694813 -0.00500559514637603 1.0495451330099563 4.193657964958537 0.004206559641793779 -0.010302237601956622 0.0015806675479464836 0.0008554786638713004
0.3287 -0.002554208491187678 -0.001379615411088107 4.263608333638353 0.6635987618284998 -0.005881627681801155 -0.01031518568188656 0.0005466818422523829 -0.0007355418371447204
0.34111875 0.0060043664617917235 0.00020630863872145433 2.2706860163048868 -3.6496178468061857 -0.01257249915398819 -0.001812424772714584 0.0004427081811488239 0.0012022843339852397
0.3535375 0.0024826578000510823 -0.011544462388256238 -2.465776572697808 -3.5118030963493374 -0.00970725022563054 0.009438343284673977 0.002684306343979844 -0.0007455573816110148
0.36595625 -0.008472927817861619 -0.0033816947146745346 -4.177425776278433 0.8879392596374667 0.0016103499612636475 0.014307280241855026 -0.000738591485236359 -0.0021002687745989295
0.378375 0.0029105709449179134 0.002394627342250727 -0.8546683484529004 4.218491783664027 0.013282583066776026 0.00808393936631528 6.81504470142961e-05 0.0014560972253369418
0.39079375 0.001319110443662826 -0.009782469387921804 3.5345215512825034 2.423182599699912 0.015403695155816353 -0.005848551109405291 0.0022788541504701492 -0.001678462029174783
0.4032125 -0.007102503833396189 -0.00194781429057455 3.601703233518955 -2.29954676061734 0.00511282424965148 -0.016593728846244677 -0.0018330545921862674 -0.0015182036798404273
0.41563125 0.004557987427395501 -0.001548701256178151 -0.7038940148731541 -4.195760484507625 -0.01047069683124047 -0.014984124230760338 0.0010883707233595348 0.0017045505778395542
0.42805 -0.004301994471698339 -0.014379176436569335 -4.11741606747482 -0.9914735508932627 -0.019169883163661312 -0.00095485739017234 0.0022083635704966856 -0.0032134235960425725
0.44046875 -0.014867270766382092 0.0004623527483498218 -2.5100523184167254 3.3844137660704225 -0.01311026190411383 0.015240404169557032 -0.00259829321582769 -0.002108165815833722
0.4528875 0.0012468508821675299 0.004927789251868935 2.1168177503919905 3.608253949749568 0.004148485145824015 0.020627899450762325 -7.94150998859566e-05 0.000221426677080149
0.46530625 -0.0015988981887900973 -0.00906057765888658 4.125093876114985 -0.5294765304516393 0.019715324775272016 0.009833894333732706 -0.0009756522351765455 -0.00281726707314719
0.477725 -0.011707742775395187 -0.0024035871850571753 1.1164885070386013 -3.983708753545514 0.020737046974518197 -0.009974495330218094 -0.0034743708238156048 -0.0003154282618104957
0.49014375 -0.006952298322106198 0.002288320727845567 -3.212184847070616 -2.571576155644784 0.005106583188197124 -0.02341937108760281 -0.0022895683464105496 0.0008925215405721235
0.5025625 -0.007817819337794765 0.002210608088503318 -3.6017054219322135 1.9257831190111954 -0.01595165810254085 -0.019195750665209257 -0.001848540175391397 0.0026289110603924058
0.51498125 -0.005375211417509345 0.0063846821850309515 0.3385975660731524 4.034890072914367 -0.025971799293811687 0.0007899655904857578 0.0016382114646654978 0.0012318562607550598
0.5274 -0.001096330100765908 0.005629882578904384 3.8220920905402047 1.2892937649291218 -0.01594234205751669 0.021817383537079373 -0.0019752671064652717 -0.0011076183913083047
0.53981875 0.0022669794154619935 0.0026471574967240593 2.694910366026513 -2.9743940625359078 0.007674987042274492 0.026987939148261756 -0.0013477907344104864 0.0025903753347542875
0.5522375 0.0011691335037518399 -0.004998727035038704 -1.6486828009443564 -3.6559457881454507 0.027036389445887092 0.010945930439323303 -0.0017684068674144247 0.0012530433233302555
0.56465625 -0.009604892376423113 -0.008676783289081965 -4.019803206472374 0.06084548160936083 0.02619079058366165 -0.015186803294519149 -0.000945129536192409 0.006659050679133255
0.577075 -0.022884177879027922 0.003184347758210677 -1.5295494301684107 3.735083214710303 0.004208410690437622 -0.031001904284614915 0.006777702149031339 0.005096506162909849
0.58949375 -0.013199527349736116 0.02758621119983615 2.8462401907365025 2.863758301671377 -0.022637827412633326 -0.023030138241465152 0.007945549984039747 -0.0022687531248973963
0.6019125 0.017149184194011752 0.022512477246380405 3.7303216620774786 -1.4977631616880844 -0.03297350251183504 0.003816075663081761 0.00234212299588496 -0.007017352611192511
0.61433125 0.01687360127986234 -0.00447906444509146 0.0820141288427436 -3.9959846259533 -0.01778815552345062 0.02905430260751569 -0.0037159530598249164 -0.0037342386179816086
0.62675 0.0013840189985686044 -0.00757407627451072 -3.6187700055605427 -1.6402381269367965 0.012258977879224572 0.03289062528879263 -0.003102504238792011 0.0008932924969300551
0.63916875 -0.004370956812911111 -0.008292723860244431 -2.9323132814022097 2.6657158373362106 0.03454329597247345 0.010964000161932507 -0.001136081449842581 0.0035827384377562724
0.6515875 -0.022697500457365686 -0.0007771212198654014 1.2954869020545892 3.752391593054098 0.030853802792071824 -0.021163446397755636 0.005785659040063619 0.0039862542253571095
0.66400625 -0.017143753642777614 0.03138580308680868 3.9620698718406198 0.2914959913924435 0.002354639173957939 -0.038326480577289206 0.008031329155039464 -0.0068646130846264945
0.676425 0.018020202238144607 0.0335509413260882 1.818033447195536 -3.533480190061139 -0.029511117362739973 -0.026173864258722025 -0.0041338003992103176 -0.010777702314738048
0.68884375 0.030456066254471174 0.011542333115790844 -2.5366535161554777 -3.0483030503978896 -0.03976107709215871 0.007324426623856531 -0.009867221283843755 -0.0016747285989933123
0.7012625 0.034680086857547206 -0.008094052898943011 -3.7809517768571337 1.1345646789785173 -0.019151855108965353 0.036704791880696155 -0.007745771351652146 0.0059957277981259206
0.71368125 0.014176098242514002 -0.040934518842267245 -0.4417411209178956 3.90551732096557 0.017574442212255424 0.03856359382172759 0.0017403670701686075 0.01207847741621447
0.7261 -0.03895135198164194 -0.024673113182779722 3.4079524853792575 1.9386457074188028 0.042128301374863876 0.010268403593794858 0.013915548229243716 0.0015819927988456213
0.73851875 -0.030249338931740036 0.03429416839997418 3.175065430873536 -2.3825866897275794 0.0357180731926681 -0.028075032755737216 0.004688111986542305 -0.012518106953980061
0.7509375 0.01616173420058239 0.03414099988595332 -0.9368159319057098 -3.8329779173693064 -7.924460852099446e-05 -0.04649346274025059 -0.006261530831596166 -0.007633941684482111
0.76335625 0.026532951052593384 0.017248708188799422 -3.877287216966418 -0.6395996285216687 -0.03751296178204203 -0.029226052536072446 -0.009418914443008868 -0.003708725562652382
0.775775 0.047442359294270785 -0.0003127124757708861 -2.0996982089780323 3.2978502942377363 -0.04704502506451763 0.011845539527824191 -0.012933611429207575 0.008850130953384092
0.78819375 0.029908286417783748 -0.05233693017756589 2.1910609927332083 3.2055396794111313 -0.02009367324224626 0.045122849533847216 0.006690400511680812 0.016769621329280157
0.8006125 -0.032987173474490976 -0.04169181145750188 3.7951090534894703 -0.7399771056872825 0.0235842754860369 0.044685764465477985 0.014312359718490646 -0.0046444349621760535
0.81303125 -0.03103472875066573 0.008816689416469943 0.8223845699764848 -3.76661408159132 0.050792667213396814 0.009164696163957948 -0.0025438304120447256 -0.008998603726917541
0.82545 -0.008407060545411675 0.013212338514145548 -3.125607311182413 -2.2365549146648434 0.03922834114087877 -0.03500542627784668 -0.004499532948377667 -0.0015116651304059466
0.83786875 -0.001413045996572621 0.02201891503044018 -3.281164434143421 1.9733497189194704 -0.003400377635385338 -0.0533853158468403 -0.007830151086724685 0.0008910515129404496
0.8502875 0.033357275936109654 0.01729610757848317 0.5030745267022193 3.7794092001864006 -0.0447281840072149 -0.030848706844847355 -0.0038819413241910307 0.012888725957976988
0.86270625 0.03671370685982798 -0.03295307410762452 3.6754819771945964 1.050402964790467 -0.05288509933099689 0.016318533757491538 0.011812111187733499 0.009648885463851977
0.875125 -0.015653665036104714 -0.0480877685231525 2.43064340888912 -2.9656623493501093 -0.020295175107507512 0.0526774269178246 0.012947115833686981 -0.003665046924811405
0.88754375 -0.03987648793848303 -0.006299095173635227 -1.7721729734240812 -3.401481098268111 0.029491571822918543 0.049417402653826256 0.006204516167745487 -0.010826506251009565
0.8999625 -0.015550145614134482 0.019615005151402472 -3.821224817244841 0.28920575107395063 0.05807453378040765 0.007355074416458554 -0.004812299771484332 -0.010320010163514708
0.91238125 0.005977015086302816 0.010714669588720421 -1.2347392390512955 3.6301051537698297 0.04230137304568531 -0.04184814131516771 -0.006515409575760854 -0.0004261502955344388
0.9248 0.005474649027990261 -0.006202009399966385 2.8482505371965123 2.5575526010340166 -0.006924783711729744 -0.05994221661198135 -0.0016471575142218717 -0.0006994419622278578
0.93721875 -0.010084683175978632 -0.007905625420045605 3.467278030929815 -1.6019496027261582 -0.05203765342803574 -0.03210383295880678 -0.005326790238381125 0.00032215537218902414
0.9496375 -0.010349076305630284 0.007710452079673569 -0.10303294126216198 -3.81538153158839 -0.05831867093669552 0.021370461580572885 0.0004733113241187844 0.005977517695234901
0.96205625 0.0026495974838028112 0.003594288315184726 -3.5466994862466255 -1.4049090077654678 -0.019538356886751047 0.05984122338072273 0.005480692153823507 -0.0036418479191787463
0.974475 -0.008762505469925446 -0.002885467353101456 -2.685517105044502 2.709055517926275 0.035463715743003055 0.05308695306656272 -0.006605647027455208 -0.006378999184751209
0.98689375 -0.006353831363522024 0.017240910200912646 1.4341136979808977 3.5266908583072425 0.0644212695887399 0.005076416590654312 -0.007213685240928531 0.0052908054369024205
0.9993125 0.02219996597037398 0.005071291263672668 3.799391933655598 0.0637518565391861 0.04446981676511124 -0.04814008829578998 -0.0007342226686153656 0.003927133986010302
1.01173125 0.00043431287946531596 -0.032009993201376624 1.548041216187831 -3.4585384342057015 -0.010433751479260059 -0.06550033478871499 -0.005016354511251711 0.006989238037546399
1.02415 -0.04610192640030341 -0.003989059577819994 -2.567756892176931 -2.777024002913629 -0.058450685763571736 -0.03271302084215136 0.008466128940239317 0.015752368317173745
1.03656875 -0.019271536237344955 0.0495067070946621 -3.553723545119232 1.2688102818276052 -0.0627718172393649 0.02587067342121049 0.02158032585780085 -0.0040672458187636824
1.0489875 0.03161050927467525 0.033315075002126444 -0.2341450546629805 3.7609068704602726 -0.018813798769779348 0.06620736198570275 0.002386284121699611 -0.018575608451453823
1.06140625 0.03169351519081217 -0.00042162752780380884 3.365966886516015 1.6896140512663804 0.04098192883413926 0.05653231848315967 -0.008532005987276894 -0.0067034837901768845
1.073825 0.027255701724318526 -0.01677332729457442 2.870790092982807 -2.436525653092817 0.0706929264663316 0.002775119115586217 -0.007652321942355441 -0.003055386158902641
1.08624375 -0.000714982650502662 -0.044622415613189186 -1.112872042315247 -3.5814469887986324 0.04639895783453783 -0.05439374749082441 -0.01175893230916965 0.00719926819551781
1.0986625 -0.05380989182384503 -0.013229425529746522 -3.713649061726716 -0.3846895223329997 -0.013961717755691553 -0.070744684564916 0.0069956974716375705 0.0166414714578597
1.11108125 -0.029683637578187896 0.05001779759393349 -1.8217551304609192 3.2488201834418393 -0.06476300254924569 -0.03339984311038026 0.0184069836408917 -0.0061592394309235585
1.1235 0.02377256601807421 0.042632863059419164 2.2722381317175495 2.949978846550497 -0.06747034826688264 0.0306924738025616 -0.0028085705238289965 -0.01735713314257577
1.13591875 0.03464094901562208 0.0189471054862845 3.593674042340071 -0.9284398129996052 -0.01782242099455436 0.07253428281336577 -0.01313490132807803 -0.0035367681323965504
1.1483375 0.050508771407987416 -0.0021889806677356924 0.5542690882701837 -3.6507916391836663 0.04624895488726191 0.059329248122481276 -0.011094568361872698 0.0062849953453143394
1.16075625 0.0334035933940508 -0.05161788794076256 -3.1200977454605647 -1.9384320648062563 0.07601793325767438 0.00045369135913358424 -0.001483248019905469 0.016874099250003598
1.173175 -0.030832349190415 -0.04989291111150935 -2.999011701046668 2.0950589613763646 0.04797686304723686 -0.059757064749089955 0.018375103401402183 0.008560445674605805
1.18559375 -0.04901455752891068 0.007489337918326889 0.7399797458344172 3.5661251247960624 -0.017157456341290914 -0.07549023854561403 0.013868189760147946 -0.013729894494578534
1.1980125 -0.016050541876071814 0.04576113000669362 3.6122512238920073 0.7738586382609689 -0.07257234080618644 -0.0344938417460151 -0.003002784971833155 -0.016618559042184636
1.21043125 0.03585578699205478 0.04559463295130131 2.135396208532634 -2.9941468394474837 -0.07270095968440005 0.03569207563271065 -0.014730063959611241 -0.010097099854669144
1.22285 0.06853760564262068 -0.010027547785883707 -1.9002339283973244 -3.1406544151291036 -0.017358985768025845 0.07984561961241163 -0.018635483071725134 0.008951133193930422
1.23526875 0.021985866139245955 -0.06113085343230387 -3.6248819620740855 0.4953386184137954 0.05228675180334342 0.06384018032223351 0.002474309394012141 0.01785284339965986
1.2476875 -0.024604341161337747 -0.03167421925156911 -0.9854009757603497 3.5169020152876898 0.08332487294237066 -0.0013541991365693356 0.009901387169410454 0.0008983232960936091
1.26010625 -0.01146252058633165 -0.009043927956046565 2.840305170563263 2.2973097430674208 0.05109618504533355 -0.06682064944047277 0.001230185653435075 -0.0024753955527249574
1.272525 -0.01836076601107074 -0.012508730346111043 3.2333739770541015 -1.697713954212056 -0.020768402167586103 -0.08212772260845022 -0.0008925777716767266 -0.002699399716186286
1.28494375 -0.018112748668872768 0.01619733304429032 -0.2836564605129173 -3.6422916300228323 -0.0778366103623281 -0.034922494222066905 -0.008281258170223625 0.0026160372744461298
1.2973625 0.020023683655684722 0.01642730178303153 -3.456139944469005 -1.1753040555037302 -0.07634775877576053 0.03953266500357769 0.0012285542426945714 0.014335058639206857
1.30978125 0.02526722086456789 -0.02059683125051748 -2.442847074012542 2.7071121568997283 -0.016614940475549286 0.08504300841027763 0.013606001203159482 0.004779285881243678
1.3222 -0.003295647539801788 -0.03410474651830235 1.5279728156425252 3.3156182756466164 0.05674541633925982 0.06637617568807973 0.00901068000867028 -0.004019912979484592
1.33461875 -0.022850172688673065 -0.016501861526641057 3.6466442260543315 -0.1020294990026674 0.08796814612741827 -0.0032443751651097716 0.006481455000874071 -0.005673148348672675
1.3470375 -0.01155308644425063 0.002722053453341666 1.3363060268861913 -3.388345179618025 0.05252522118326602 -0.07145131877072612 0.0020305248857405006 -0.007889166271362416
1.35945625 0.005104729324371352 -0.010271802660134355 -2.587626184622128 -2.5560644977841163 -0.023539234385904544 -0.08615571363217076 0.0009047923546195073 -0.0047409803139447934
1.371875 -0.011825969142639694 -0.030465755924962847 -3.360471272265472 1.375875024937084 -0.08276646224542182 -0.035332236811225076 0.002209373869337257 -0.010059926894380697
1.38429375 -0.04341687678441753 -0.017720861672837717 -0.051887424429125785 3.6238961316563922 -0.07959744350800668 0.04317573594376808 -0.00993230264178582 -0.01254971637691533
1.3967125 -0.04662239182503551 0.025421002610374013 3.303407087563579 1.4649059989551392 -0.015681930684558597 0.08972338530149884 -0.016475079202855663 0.0013350499652185824
1.40913125 -0.00015811672680101082 0.04934476315134222 2.6336952668933837 -2.459823914324142 0.060992436258159505 0.06853821436865865 -0.007159864112869101 0.011491273941021668
1.42155 0.039630743460743266 0.011285755000485821 -1.2213345430968479 -3.3763445602108493 0.0921357404133153 -0.005181827598694865 0.0039668685805315795 0.009847326146165158
1.43396875 0.020998086468820655 -0.03426576283062119 -3.577748448445351 -0.20071231026905512 0.053589634099079006 -0.07592638084917142 0.009609221563000198 9.581552351197985e-05
1.4463875 -0.01577964397767192 -0.04339102983341047 -1.583201279111008 3.1999583456747502 -0.026267333444670252 -0.0896412137289925 0.002269454156274062 -0.01174370890179529
1.45880625 -0.052477022324201254 -0.033693691539694884 2.3110430682942105 2.7001007969212765 -0.08691829712241603 -0.03536567128248197 -0.015737035719966402 -0.007816747184127415
1.471225 -0.08482184321059087 0.014789480182817697 3.366901892728044 -1.0562197808381293 -0.0821603711428438 0.046188778112928236 -0.017483127402596055 0.015867507332873017
1.48364375 -0.05187544830020131 0.08720831957236873 0.3618930008424806 -3.484308406822575 -0.015190435567797568 0.09347360097452934 0.008621417420287473 0.0255235850059835
1.4960625 0.037068017917695144 0.09302226150067501 -3.0379804140189828 -1.7127964947982324 0.06402793267342015 0.0705955596932616 0.026288597532503406 0.0034940129569386606
1.50848125 0.08753389812154391 0.021667041428257153 -2.7686385145725088 2.1088987141248716 0.0958240351073657 -0.006186944988901795 0.01601546672322207 -0.01935964239798561
