!Created with skrf (http://scikit-rf.org).
# GHz S RI R 50.0 
!freq ReS11 ImS11 ReS21 ImS21 ReS12 ImS12 ReS22 ImS22
0.13 0.0027011294076702518 0.000611445168372146 4.6801097507141804 0.20990279054588407 0.0020558731171314154 -0.0001419957504741385 -0.0001313782625068374 -0.0009082802923302439
0.14241875 -0.0005538405283915717 -0.0013122221715725622 1.9780993889160048 -4.226239819018889 0.001443068478578945 -0.002099217731942309 -0.00026816435797797126 0.00041417217545454643
0.1548375 -0.0009791982834275966 0.003608131479521619 -3.1024762700287 -3.427748650217464 -0.0008853600463634039 -0.0027769447355300283 0.0010984177599309432 -0.0004303010841091019
0.16725625 0.004106445785212406 0.0023037673112325406 -4.330112629728383 1.5360316854756342 -0.0031671647183131066 -0.0011463999345568594 -0.00040430192517854145 -0.001354719364300645
0.179675 0.0012480096265344383 -0.0003394924624594683 -0.26351328963876175 4.569067621735318 -0.003234404871872004 0.0020891787239567952 -0.00045162387232507666 -9.483768730445382e-05
0.19209375 0.0030154948925139066 0.003826746631494924 4.063981605097559 1.998539664918493 -0.0003919633739975857 0.004340390820185635 -0.00015685438076615922 -0.0012343205418054964
0.2045125 0.007916771847208385 -0.0020111066562758127 3.408091089984707 -2.9601616575183654 0.0035691615876915967 0.0033128625942582465 -0.0021540365061322375 -0.0003804204686028813
0.21693125 -2.079509477600351e-05 -0.005980693904213621 -1.389666864941445 -4.2631052193285655 0.005379038355736408 -0.000902970024449033 -0.0006376257682954978 0.001469177199076794
0.22935 -0.001337052067011789 0.001888877816976451 -4.4636713104349575 -0.3702896496023454 0.0029003535662863603 -0.005345697151760886 0.00012536819419220084 -7.339347036978817e-05
0.24176875 0.005101063802028634 0.00013586535872442632 -2.071352402405764 3.93764481770505 -0.0026598055065804953 -0.006149208184053463 -0.0011133045337516356 0.0002994482588819851
0.2541875 0.0018281675692427936 -0.003248046434285902 2.784481616992911 3.4366317410556784 -0.007245340931495977 -0.001751995865462612 -0.00038565804292192577 0.0009549120088882271
0.26660625 0.002435956135285221 -0.000417334321767482 4.2352398831956455 -1.2235809844818102 -0.00633307187588119 0.005141301532733652 -0.0004352402620459812 0.0009941188051678493
0.279025 0.0037293680899228234 -0.004788496032161405 0.5266996042443985 -4.360886390530864 0.0001955140241955209 0.008877031914425597 0.0005256794710935646 0.0014729737270902385
0.29144375 -0.0022379061219217357 -0.003694767412361967 -3.789305381097758 -2.1774349283397867 0.007698101635823641 0.005708081103693134 0.0008214920299920763 9.720514295355678e-05
0.3038625 0.0017395282290244996 0.0009300640645041489 -3.466218101676742 2.622371833807529 0.009964732914664855 -0.002737875406117184 -8.676338120840453e-05 0.000862237606172057
0.31628125 0.00282385445108194 -0.005059332154534845 1.0523445615211937 4.192704647102679 0.004248779596458957 -0.010255483669044937 0.001582417462960035 0.000825126077889276
0.3287 -0.0025994046419755843 -0.0014608624717872534 4.263044041537803 0.6608692556171708 -0.005876960254905942 -0.010326624913569407 0.0004997598016458605 -0.0007367455870522295
0.34111875 0.005936010608128771 0.0002690812334668218 2.270197369425604 -3.650496836342155 -0.012553106243542599 -0.0017659695356994098 0.00045032169460430897 0.0012470273614982668
0.3535375 0.0025181806605774257 -0.011488442943226308 -2.4658920963294064 -3.5099319187389733 -0.009714120170873438 0.009414151045617694 0.0026877428923993804 -0.0008145175436646144
0.36595625 -0.008391652006627778 -0.003399768195108884 -4.176819435798827 0.8907870934483549 0.001613329863281531 0.014263756365684048 -0.0007736607797067676 -0.0020487855176906777
0.378375 0.002979479820625788 0.002257165122880905 -0.8510236881221928 4.218232320714236 0.013254274740589843 0.008097391280663821 0.00014756489809147132 0.0014496036926933634
0.39079375 0.0012149299240901594 -0.009905976563429886 3.5339107735197417 2.4197545963670852 0.015386178610417325 -0.0058275023583902975 0.0023655749450808283 -0.0017726208889550373
0.4032125 -0.007328443392363678 -0.0018952643272219796 3.602251847060618 -2.2986872594928975 0.0051280822121824105 -0.016599001656900605 -0.0018976227888860405 -0.0015980352129150526
0.41563125 0.0044682947720998244 -0.0012754954341093476 -0.7069571788229585 -4.196483357569201 -0.010476608570354354 -0.014973008327209074 0.0010753795773039525 0.0016722406460342994
0.42805 -0.003961202236244614 -0.014171018519101092 -4.114702853875905 -0.9902266405449728 -0.019141076342111003 -0.0009769718794201314 0.002028473527832541 -0.003184544733592787
0.44046875 -0.014439256163753104 0.00025400760655783797 -2.510377809190069 3.38629995552791 -0.013102388270469742 0.015201877913019078 -0.002607735398920765 -0.0018951739928142787
0.4528875 0.0013216865909961362 0.0044630564856261885 2.118543804220466 3.609222573175531 0.004152336689334361 0.020639770812696325 9.24269055729341e-05 0.00023994871557489488
0.46530625 -0.0019349172038863425 -0.00937296393999007 4.1271195912203185 -0.5309521287551178 0.019717031582022537 0.009834745679445953 -0.0009402240757910173 -0.002885009249702632
0.477725 -0.012120650543744125 -0.0024573698799244042 1.115336256536239 -3.98377797991606 0.020722834388232324 -0.009944618222026424 -0.003489172117802654 -0.00036384090821917097
0.49014375 -0.007378903808780944 0.0024365446554967664 -3.211201193787616 -2.5700702628747027 0.005117415081781482 -0.023430672927893106 -0.002314939577689933 0.0008857259580001204
0.5025625 -0.008102769388048372 0.002702551706734695 -3.5993371536770127 1.9245168380434672 -0.015981524414375496 -0.01923169089609823 -0.0019135898286018228 0.002764057810177942
0.51498125 -0.005145798443571767 0.0070320490230352615 0.336275125488968 4.033614369470012 -0.025942986132344963 0.0007961706574014061 0.001876023419524708 0.0013304504220933034
0.5274 -0.00048273718917126894 0.0057951964275523 3.824525741695087 1.2889531499944424 -0.015927230302428146 0.021815430500492086 -0.0019104682676913977 -0.0013072833093756898
0.53981875 0.002756427478771816 0.0023193294280274635 2.6935919987089707 -2.975588019981433 0.007676000427795105 0.027005497485669185 -0.0014633404932879372 0.0025704744760124
0.5522375 0.0011049645020316421 -0.005402786903551147 -1.6521715653471856 -3.6543704933471672 0.027015614260931 0.010961643980034123 -0.001747455825706673 0.001203099228568667
0.56465625 -0.009848160955852387 -0.008763317017696197 -4.020501754341862 0.06304941940071448 0.026183447330826334 -0.015155722451775887 -0.0010820861804859622 0.006632856584642667
0.577075 -0.022910900905108545 0.0032613415179736354 -1.5261461053034884 3.736211374780065 0.0042312982741264755 -0.031027664047807435 0.006764265569768874 0.005186740995625441
0.58949375 -0.013092606770078714 0.02748296733476641 2.844932334830457 2.861271699894495 -0.022581426440907524 -0.023048074561354943 0.007974094124154651 -0.0022764625756717606
0.6019125 0.017073643900013483 0.022337395393382888 3.728655992956433 -1.4979800189978965 -0.03293303123381027 0.0037840902909089228 0.002266452366190498 -0.006965726431446687
0.61433125 0.016670323943802735 -0.004522728636806932 0.08008261584291916 -3.9948028532763242 -0.01782976852721017 0.029037737737728712 -0.0035877050253485536 -0.0036608467339305046
0.62675 0.0012161108107523876 -0.007548270054276651 -3.617881730381496 -1.6392408857147711 0.01224943483263721 0.03292674352714238 -0.003048599128630549 0.0006767304454815752
0.63916875 -0.004507051010599004 -0.008162404257157845 -2.9312173495885636 2.668371774998783 0.03454931055225506 0.010963964643790338 -0.001256902036846711 0.0036495002742144744
0.6515875 -0.022725383416096992 -0.0005392738541157194 1.2945308231600838 3.749622300365497 0.030836892219352326 -0.021161122838095053 0.005924695740285667 0.004071038543349896
0.66400625 -0.01705782350713049 0.031658096078163035 3.963089122133936 0.28927899785558103 0.002346800180112268 -0.03832696137180052 0.008024066270213692 -0.006968014259565846
0.676425 0.018359908215329755 0.033685928155451905 1.8181451440251488 -3.533697280970736 -0.029524671547948574 -0.0261499445261501 -0.004187231399282054 -0.010706895651494006
0.68884375 0.030732329654255302 0.011381217269693728 -2.5364693174737756 -3.046391639839348 -0.03977333044654887 0.007321076689599639 -0.009805801013833259 -0.0017331634731574195
0.7012625 0.034711819211140964 -0.00839773548988087 -3.778262621966055 1.1337577339721316 -0.019160223163296713 0.036739149459470946 -0.007865549943601644 0.005996351283022274
0.71368125 0.014000153625390237 -0.04109579011417711 -0.440081488377073 3.9027564393257763 0.017543394002029745 0.03854420077904769 0.001811306504923628 0.012222318609321254
0.7261 -0.038968961324686816 -0.024602443872096296 3.4096153279334396 1.9384379971457255 0.042116657826786814 0.010267847088976628 0.01395686317141932 0.0014398131586562898
0.73851875 -0.03006584382149821 0.03422699661730024 3.172951304244792 -2.382353053647137 0.0357412339491917 -0.028101122752413523 0.004488685338128422 -0.012469937112597756
0.7509375 0.01617910427666294 0.03380742605916837 -0.9370772503721091 -3.832914039232834 -3.491055362259358e-05 -0.04655073764190339 -0.0060872628254222535 -0.007398817344622912
0.76335625 0.026072398382442293 0.01694930920384437 -3.8773743927925737 -0.6390709395463614 -0.03751995605969666 -0.02922328127851206 -0.00917968926411344 -0.003799419240131065
0.775775 0.04672048538204455 4.2553080909203454e-05 -2.098012395728239 3.2971869096819515 -0.047065800416893164 0.011809832175024957 -0.012876918294165313 0.008749604671180336
0.78819375 0.029813395631977154 -0.051379124033254994 2.193256277532853 3.206404662896493 -0.020093796657119075 0.045164549759750094 0.006709451985015417 0.016505952333516826
0.8006125 -0.032166730593260716 -0.04096390218032212 3.79579575612276 -0.7421930521557344 0.02358401807627916 0.04468158689224001 0.013900301467510886 -0.004793944213664639
0.81303125 -0.02987524341822935 0.008535736796815492 0.8187136162120289 -3.7682881382133115 0.05079985849540463 0.009199970947108883 -0.002725466120348139 -0.008574716733812791
0.82545 -0.007849254839180041 0.012237846413729112 -3.125607311182413 -2.2365549146648434 0.03923926685979443 -0.03501037068443872 -0.004196604577131812 -0.0014041642493092812
0.83786875 -0.0017647702472718611 0.020995488567112978 -3.2779515243529223 1.9732437538078287 -0.003369216478872115 -0.05335480205381043 -0.007714467089020818 0.0007757434408551144
0.8502875 0.03234405847725997 0.016726699835805048 0.5040249668342193 3.7806372241767088 -0.044736595023661216 -0.030836507977907258 -0.0038015528715805488 0.012738097369357354
0.86270625 0.03569088854834044 -0.03262195517981309 3.6753780437987924 1.0485439724617374 -0.05289256663631741 0.016281352262458245 0.01164631520478953 0.009450736681365004
0.875125 -0.01604989569555004 -0.047133618519683285 2.427936860037985 -2.9650391689249043 -0.020324746512245997 0.052657846430306306 0.012659011185949816 -0.0034188115659050254
0.88754375 -0.039396275155782486 -0.005591575295014817 -1.7752882412968656 -3.401233268938401 0.029515200059553107 0.049445503800257015 0.006413282734975713 -0.010595619550375177
0.8999625 -0.014974696147942279 0.01962044392502889 -3.8214316630718126 0.29131769923044476 0.05809678255105984 0.007391850482388305 -0.004754789141610667 -0.010459878137261364
0.91238125 0.006185461434541991 0.010418636948048532 -1.232982460720367 3.632249201553309 0.0422857497142013 -0.04186121689321386 -0.006602989309177872 -0.00028648864208288144
0.9248 0.005384915029415751 -0.006220285413888906 2.8477742930245817 2.556073067699674 -0.006911275594956898 -0.059968735311135016 -0.0014286227721396916 -0.0006583679356790864
0.93721875 -0.009857380835654845 -0.0077796538546028625 3.467949044360975 -1.6034073836448548 -0.052016550720528354 -0.03209081396674687 -0.005348767314069071 0.00015684981244076777
0.9496375 -0.010030030312037629 0.007457873894065691 -0.10541445212649841 -3.816781878518883 -0.05834867509750026 0.02132732614752419 0.0005314816341762747 0.005985551981951028
0.96205625 0.0026079965729829254 0.0030791997259383584 -3.5456847558928817 -1.4028293428004446 -0.019540316197904486 0.05988873684441572 0.0054479857784811864 -0.003824970147037035
0.974475 -0.009166877621440413 -0.00319420678775097 -2.6798393167015013 2.7084936642821567 0.03548336123317621 0.053096766079662364 -0.006887402337883883 -0.006247511258422555
0.98689375 -0.00690318542184135 0.017160041892610865 1.4368701758757492 3.5245141170822984 0.06444739192218861 0.005084830431213862 -0.007021996394810379 0.005543462392768624
0.9993125 0.021636028566892222 0.005372538150197267 3.799396507932967 0.06347865976999174 0.04446868668248769 -0.048063206572762 -0.0005409340720171803 0.0036518272039076966
1.01173125 0.0002557230297647853 -0.031256583324124086 1.5466494243711812 -3.4579575804190466 -0.010395632900587206 -0.06549094566114445 -0.005205203211220204 0.006920290709945242
1.02415 -0.04560382909851088 -0.003245173206063653 -2.5693540643223423 -2.7757126782664034 -0.05848056393612865 -0.03276116517927507 0.008459017250591495 0.015723708272962367
1.03656875 -0.018367281435297034 0.049599166591065884 -3.552171021027961 1.2688020952326853 -0.06280355966786083 0.02585370649559481 0.021310763796323722 -0.004111302990872304
1.0489875 0.03215255438652421 0.03263178560393056 -0.23207120744189422 3.760668501744865 -0.018838817995475834 0.06624387388365016 0.002379238117661843 -0.018158197455037595
1.06140625 0.03146763351514173 -0.001143916766831117 3.367868706669966 1.6896345443191718 0.04097191686585591 0.056563128438467086 -0.008225050485600191 -0.006662371712977735
1.073825 0.02666253200249015 -0.01677709455119171 2.8690154592793813 -2.4380495477665893 0.07073899841199177 0.00276847490501265 -0.007684293748361816 -0.00312783810155652
1.08624375 -0.0007879364192612425 -0.0442759026829172 -1.1150230860139052 -3.5797550549536634 0.04643978703924733 -0.054404040186323076 -0.011552818909326945 0.007291488459827671
1.0986625 -0.053458662161480035 -0.013243606523010222 -3.7109610788323386 -0.383388241430364 -0.013937999152772001 -0.07072603312870439 0.007133161368233961 0.016202352067240834
1.11108125 -0.02955197790724718 0.04957236728770587 -1.8182361591420206 3.2498118147985133 -0.06480135036299918 -0.033441995177773326 0.017999876217184504 -0.006308909325327706
1.1235 0.02336087930992278 0.04230725152252542 2.2710202719799737 2.948605644828114 -0.0674502250377951 0.030672220054354934 -0.0029540334920058666 -0.017170420150381307
1.13591875 0.03412387065769856 0.019082026760978116 3.5927385774302336 -0.9320531761633302 -0.01782333123056021 0.07253798732219179 -0.013211563619114002 -0.003489874807516175
1.1483375 0.05021117200811551 -0.0017445765063341505 0.5515428336316793 -3.649599577026504 0.0462644154256116 0.05942842255667299 -0.011031238783842429 0.0065425484420426165
1.16075625 0.03345367693982389 -0.05104810447668096 -3.121569427432543 -1.9369874769770872 0.07599862218138631 0.000491830539573565 -0.0011553652275179754 0.016719045704504106
1.173175 -0.030433866953342808 -0.04938350240612395 -2.998010996418203 2.094359886011362 0.04798746709674858 -0.059782794831898634 0.018089227376347078 0.008280999860334457
1.18559375 -0.04835779555312569 0.007665881710442273 0.7403118963661727 3.564061394994584 -0.0171566108965121 -0.07548651871519392 0.013718391078755963 -0.013358397499504843
1.1980125 -0.015347294916958574 0.0453538474590404 3.610743992641863 0.7721519627936643 -0.07257164819237837 -0.034566326433836905 -0.0027178306680845183 -0.016588292849183804
1.21043125 0.03598457794314221 0.044807686764366896 2.1339899637912096 -2.9945497020720127 -0.0726281522253588 0.035693208788539176 -0.014830838374421536 -0.010192952814838023
1.22285 0.06815778729667457 -0.010551739805704298 -1.9006866103049294 -3.1399524080009087 -0.017313009027532442 0.07984389140954444 -0.01848837194677806 0.00906423813377545
1.23526875 0.021502362423948828 -0.06110447305386935 -3.6244755010470584 0.498304051931984 0.05225627886036298 0.0638651263005696 0.002475064220905825 0.01761971315435298
1.2476875 -0.02487858007866735 -0.03160262042330486 -0.9835944101525301 3.519689200938359 0.08337884851210325 -0.0013190947869767455 0.009761000510353973 0.0011090078666586055
1.26010625 -0.011627620673269704 -0.00882434519868928 2.8417408524750924 2.2976698534021502 0.051051687847621645 -0.06671060279673827 0.0015836386326446095 -0.0024683250816920368
1.272525 -0.018372102721113927 -0.012232411496896153 3.2303791061471516 -1.6989520150609527 -0.020798248796141786 -0.08210442859089735 -0.0010369653348934554 -0.0031203577075319187
1.28494375 -0.017964255069125804 0.016380276371556493 -0.2856906837734779 -3.6395612796530066 -0.07783623761382201 -0.034960583155888576 -0.008563314471253896 0.0028574568938044063
1.2973625 0.020164442212569387 0.016484212192183576 -3.455668855869228 -1.172516045644005 -0.07635176081701694 0.03950833667030093 0.0014329734165913666 0.014428202398862394
1.30978125 0.025477258745444924 -0.02046766027321455 -2.441977645912194 2.711347365044926 -0.01661572324026137 0.08507783664365352 0.013532357336431046 0.004664466749436558
1.3222 -0.0027459823664457367 -0.03405963569370737 1.5290946887595107 3.3138911316524955 0.056744444930460845 0.06640711510986229 0.009107162331953054 -0.004056443977031736
1.33461875 -0.02205306706172401 -0.017137921942399312 3.644391109198183 -0.1039751796035041 0.08799325151107007 -0.0031841035842174285 0.006353006633172578 -0.006094143752753586
1.3470375 -0.011542275201479909 0.0011749657319687747 1.3357686023831201 -3.386982482984356 0.05255635625195486 -0.07144262798324025 0.0014055331282251812 -0.007572053320324972
1.35945625 0.0035447642101781203 -0.011454600314906744 -2.5899772384975512 -2.554203789117673 -0.02348090367727721 -0.08624279545531227 0.0012353869356694395 -0.004062552140279804
1.371875 -0.013800715563990311 -0.029968303147071555 -3.3622050986992473 1.3787265847365862 -0.08275068676405531 -0.035378873269237214 0.0026675827813148283 -0.010191429764963775
1.38429375 -0.04413949999255097 -0.016065464152681824 -0.05112899832510364 3.6226860868666964 -0.07960756375025464 0.04312504779089015 -0.009895664082141459 -0.012699746936317518
1.3967125 -0.04603297119882841 0.02673639844497258 3.3031630386844344 1.4630464655253523 -0.015674290281701884 0.08975182751500951 -0.016339252703223495 0.0010306627610350363
1.40913125 0.0008111229227883193 0.04977519083622958 2.634697834652664 -2.461433014241568 0.060997508183340016 0.06854391377528363 -0.007484190681553186 0.011287304021185517
1.42155 0.04041094920691061 0.011015439387264134 -1.2236802241911038 -3.3741966595595483 0.09212186023596936 -0.005156829958150361 0.0039028960867954626 0.010208977399705329
1.43396875 0.021258906123697494 -0.034765823004648595 -3.5763676752780085 -0.1991673235150617 0.05363659717245359 -0.07588854078529161 0.009858572086373644 -2.670136528948391e-05
1.4463875 -0.015918312110175272 -0.04374448231851787 -1.5810772303198426 3.200055284911987 -0.026197960060926322 -0.08965356446322359 0.001912227631954622 -0.011782018644823223
1.45880625 -0.05268967623699741 -0.03387082837808723 2.3113239968894828 2.6974494790384784 -0.08689899521379502 -0.03541307259690967 -0.015584375897104779 -0.00744641242375639
1.471225 -0.08502987493127385 0.01470631451254735 3.364398216073965 -1.058080403906104 -0.08213709436617228 0.046175692414094235 -0.017210549221851792 0.01561583893122727
1.48364375 -0.05200619298895103 0.08713041391947607 0.36015364497243624 -3.4814205939548684 -0.015160402824405528 0.09349007025790065 0.008433738252943841 0.02542449484823868
1.4960625 0.036645466601124214 0.09299275007154927 -3.037809287973843 -1.7116084192343815 0.06401170352918999 0.07063086984710823 0.026335869603331702 0.00353627563692943
1.50848125 0.086936018098323 0.022090766271664238 -2.7694225244987867 2.11068958599518 0.09579535591067674 -0.006157426155516856 0.01567239800785093 -0.01941461821769793
