!Created with skrf (http://scikit-rf.org).
# GHz S RI R 50.0 
!freq ReS11 ImS11 ReS21 ImS21 ReS12 ImS12 ReS22 ImS22
0.13 0.0027394994252508743 0.0006042714016106492 4.678606311816656 0.2052311147596787 0.002110600173001473 -0.00016031764431774506 -0.00012405101583199673 -0.0008905976646964869
0.131 0.0027711799543455496 0.0002476711510023773 4.673374664305014 -0.2382423149459013 0.0021212786395532176 -0.0003224628421102291 -0.00028864566139633443 -0.0008368049375686847
0.132 0.0027122607432661606 -4.3364487695670205e-05 4.628234467506113 -0.6770233426270479 0.0021046261755002767 -0.0004657376794193368 -0.00033878297726618154 -0.0007784217516360512
0.133 0.002582354628532244 -0.0003601326860248921 4.5407487172269425 -1.1155856689889132 0.0021422579688983767 -0.0006344068557201656 -0.0004712121130737588 -0.0006979846331070746
0.134 0.0024050102468166313 -0.000707271810892404 4.413951167588127 -1.540492335424083 0.0021223425516958307 -0.0008083057863954263 -0.0004906711728150377 -0.0005893138736102032
0.135 0.002174101720498573 -0.0009440928594841704 4.248999584100083 -1.9522335895294405 0.002079652279085211 -0.000946724951582529 -0.0005899232515818709 -0.0004904979264542588
0.136 0.0018728133377313091 -0.0012124106046683364 4.039524796053739 -2.3397544773468044 0.002016702402812825 -0.0010989443995827958 -0.0006136708921746311 -0.0003463151414380084
0.137 0.0015328478327559577 -0.0013560560547431135 3.800125820110903 -2.715101246533835 0.0019471136598326747 -0.001308040000579104 -0.000603258171983844 -0.00023829510348445882
0.138 0.0012150534311197183 -0.00150801887687951 3.525023529801699 -3.060460865056403 0.001879619308929887 -0.0014176005982984132 -0.0006043318790902147 -5.7941050297315175e-05
0.139 0.0008303053545576402 -0.0016147058115050462 3.2176284348261084 -3.3798115276513565 0.001800513273603107 -0.0015944920909467977 -0.0005502328904917163 6.672252527351062e-05
0.14 0.0003977425299471278 -0.0015769254847335442 2.8815474146688036 -3.6680674050343622 0.0017213710311685193 -0.0017549078546987794 -0.00047943655438202734 0.00018104445549830674
0.141 -8.378293971023553e-07 -0.0015361306766688374 2.5214019357191346 -3.923484926413649 0.0015854098994444528 -0.0018641116778053616 -0.00041647387992138103 0.0002811631197726891
0.142 -0.00041579550346675976 -0.001424721764868468 2.1377366779361253 -4.14338294156688 0.001480486162749624 -0.0020352331003727396 -0.00031992577646974287 0.0004036684864085606
0.143 -0.000799941683568373 -0.0011987890266039816 1.7363815397737263 -4.321427819921165 0.001316766646148323 -0.002135835750686483 -0.0001767996932696502 0.0004508139147278653
0.144 -0.0011410926787187576 -0.0009437843185655326 1.3191948396863167 -4.46470255394196 0.0012113463481703115 -0.002290817859125086 -7.789959293645497e-05 0.0005002227423401662
0.145 -0.001467031679254794 -0.0006359815941847326 0.8887829830899976 -4.5674043690306805 0.0010522203428394432 -0.002402006564083682 9.801015571554654e-05 0.0005382303260323161
0.146 -0.0016990399735820757 -0.0002596103104959347 0.4522283747456941 -4.627123346047959 0.0008748285219838357 -0.0025034789822969633 0.0002532274178586923 0.0005459605615285285
0.147 -0.001881297464399939 0.00015141723664495357 0.0148879937672315 -4.6462163814405635 0.0006738941957830943 -0.0025940787604736976 0.0003931104087452696 0.0005492569314023071
0.148 -0.002064299895880915 0.0006176019036404521 -0.42255259625038805 -4.622818125434847 0.0005292960807275687 -0.002639314809065441 0.0005410479290508778 0.00048522820714490007
0.149 -0.0020897681239061597 0.0010784654197922134 -0.8588337926979228 -4.559218874586119 0.0003020484237522667 -0.0027407170537456483 0.0006648791601003494 0.0003897380961404054
0.15 -0.002084484665111435 0.001571217531871834 -1.2812601808288415 -4.455671140062773 0.00013471824434560872 -0.002773113966962887 0.000790639597992725 0.00032512795454940656
0.151 -0.0019606752979269486 0.002072903004533779 -1.6941365419098786 -4.311156135832724 -8.995329390084718e-05 -0.002800331548191969 0.0009296365607780363 0.0001920343597026799
0.152 -0.0018588810225899871 0.0025110592494701077 -2.0937733946203765 -4.128029299162457 -0.0002862362992004674 -0.002823304422940011 0.0009978317805838049 4.247578736822152e-05
0.153 -0.0015628562630976678 0.0029729601378507245 -2.471546220741668 -3.9112523959511893 -0.0005286178452402026 -0.0028619659813151556 0.001042221815854428 -0.0001084554579444394
0.154 -0.0012550792148682307 0.0033381166804223304 -2.8276162916668754 -3.658095604024009 -0.0006954323880057185 -0.0028022456246428093 0.0010989361193415432 -0.0002913395427648341
0.155 -0.0009154238506276533 0.003717964282048651 -3.157356840347152 -3.3729187077286578 -0.0009279348045348461 -0.002780232180402048 0.001107059358012283 -0.00043747787295179513
0.156 -0.0004354745185109 0.004011667860209423 -3.4589543690282616 -3.0577027895770317 -0.001135047969763914 -0.0027413053736509625 0.0010623079838518415 -0.0006294110411403676
0.157 2.583789698442627e-05 0.004210869674167944 -3.729089802477024 -2.7163405116081134 -0.0013745587981233043 -0.0027072987591170846 0.0010393710947864956 -0.0007954005280173443
0.158 0.0005094080201301309 0.004365146493405458 -3.966028172402126 -2.349299716368479 -0.0015899218245566346 -0.002628588273407548 0.0009688577174231351 -0.0009699812822199387
0.159 0.0010372557385959047 0.004403721867387831 -4.165754658263622 -1.9633088982501086 -0.001801559914934394 -0.002532626851611325 0.0008740964985832331 -0.001059112750970014
0.16 0.0015202471172713306 0.004396608878411819 -4.328067005306026 -1.5606003349227573 -0.001965993664679202 -0.00241767248671049 0.0007228310446314694 -0.0012024357308328148
0.161 0.002023968552029543 0.004311982773715971 -4.452539116571037 -1.1450299204967065 -0.0021795970933699465 -0.002283060721001447 0.0005929494125444171 -0.0013300775036190632
0.162 0.0024886928514007045 0.0041351723076647725 -4.539604663096695 -0.7190027438592257 -0.0023670398261325352 -0.002128955694434324 0.0004423988960202809 -0.0014024432169847168
0.163 0.0029024343672028976 0.0038694693814802592 -4.586296124634807 -0.2861596012369521 -0.002547899710954954 -0.001970017721205444 0.0002538853718381541 -0.0014602222016171951
0.164 0.003331358172041173 0.0035871256674433467 -4.591107534722642 0.1484172655907759 -0.0027156448015164575 -0.0018263429367748614 0.00010000339032448456 -0.0014914760349034285
0.165 0.0036736158510401696 0.00321658273469573 -4.557193803876443 0.5841689471621423 -0.0028662111988692865 -0.001629372043356411 -7.010872984629874e-05 -0.0014533786026122307
0.166 0.00392929134267468 0.002830312203918342 -4.475892131558051 1.0108665060081568 -0.0030009953655941446 -0.0014319036877608014 -0.000216617433024588 -0.0014665152758973283
0.167 0.004100393580792954 0.0024119286818994235 -4.357910925048556 1.430438164191396 -0.0031434383321481164 -0.0011992820327086588 -0.00036410318288766514 -0.0013894996461851243
0.168 0.004227700733106417 0.0019405280822133658 -4.20711797296668 1.8415981386274038 -0.003258718864011361 -0.0009739827229845898 -0.0004902972431573722 -0.001293053004828987
0.169 0.004262955598478057 0.0015095099815776176 -4.011938091450944 2.229578076627732 -0.003360516322042165 -0.0007325190526255759 -0.0006387335502385782 -0.0012156413779986104
0.17 0.004189031484583475 0.0010405380870988964 -3.7812500004707075 2.5995403247983444 -0.003444906755818754 -0.0004985285431944972 -0.0007098039347060875 -0.0011106567326114004
0.171 0.004061105815184272 0.0006614996630611872 -3.5187061322754607 2.9451941567576627 -0.003497493320182189 -0.00025990865010603 -0.0007788497723992672 -0.000977505777646699
0.172 0.0038661987489235585 0.00024672894537218444 -3.225871362668083 3.2612534909164825 -0.003559946881479264 9.708249346596186e-07 -0.0008325263630792809 -0.0008268697151609353
0.173 0.0036282601589505527 -4.104865139569797e-05 -2.9018560308533754 3.5516943876288916 -0.0035775282260222803 0.00027027120840425917 -0.0008729880400388837 -0.0007194359048776331
0.174 0.0033165333722051014 -0.0002770483652778463 -2.552203927402891 3.80895286284172 -0.0035991265214646503 0.0005248552984716361 -0.0008577848960222383 -0.0005777327308108912
0.175 0.003000165016732148 -0.0005069718163373726 -2.184043387877335 4.027744728195198 -0.0035802236237356534 0.0008281024891425159 -0.0008494656477696364 -0.0004503326003711473
0.176 0.0025857972005753787 -0.0005981389869890786 -1.793985980675581 4.2127840665051 -0.0035765328643396458 0.00106791022108837 -0.0007795024917815748 -0.000336664852814915
0.177 0.0022112139687630768 -0.0006475370956933072 -1.3860414411990705 4.363781468235743 -0.0034938792040093655 0.0013504751081451509 -0.0006977368076391242 -0.00025029832608864484
0.178 0.0018277991413807087 -0.0005924416977267167 -0.9725104897532147 4.465894238837419 -0.003413902858178146 0.0016306343389409699 -0.0006022285075193042 -0.00014928051810425254
0.179 0.0015104717804710279 -0.0004809242746545931 -0.5484113366707288 4.532863543408863 -0.003345502467255824 0.0019115070499956888 -0.0005065854046172937 -9.246182081114477e-05
0.18 0.0011621373121012849 -0.0002950503959107622 -0.1187848145569886 4.571943499364024 -0.0032229608497162565 0.0021554211131063887 -0.0003803542557511819 -9.230289824634326e-05
0.181 0.0008858671281747577 3.503075971227019e-05 0.3098769167527533 4.561018759415283 -0.0030545709277210475 0.0024378864430473447 -0.00027677743064468226 -0.00011793070280214836
0.182 0.0006933308261054276 0.0003500308331396513 0.7412107391659567 4.508570337525574 -0.0029182298866613633 0.002656548912559514 -0.00016560700762211785 -0.0001655618514736247
0.183 0.0005445928574941207 0.0007267629683172167 1.162720518086277 4.413877357510452 -0.0027520682083982703 0.002884280968343925 -7.117775204354953e-05 -0.00016664089073794802
0.184 0.00046358710143176723 0.0011322766300126074 1.5743260242413988 4.2835784369529195 -0.0025727187871241613 0.0031062590940614133 5.70290786029027e-06 -0.00027512064303045365
0.185 0.0005110729589496832 0.0015577295128817474 1.971150885852301 4.1131017349139505 -0.002331706689344335 0.0033577186259694074 9.880736391177732e-05 -0.0003497967142042868
0.186 0.0006001956202833581 0.0020247056705640933 2.352473896137214 3.9061201229507314 -0.0021265533482207194 0.003538632611139372 9.734858837074553e-05 -0.00047140556048618583
0.187 0.0008067587796171136 0.0024387438999522422 2.7093667534703294 3.666986083520633 -0.0018505420508580462 0.0037243218453524014 0.0001458555787038968 -0.000586527705679576
0.188 0.0011125782879457672 0.0028363464783616615 3.0379030702673724 3.3922600486942627 -0.0016037618789147131 0.0038763078104595626 0.00013103709001404827 -0.000744038115659671
0.189 0.0014844434152002984 0.0032056247831676547 3.3395897719160037 3.0870850311981535 -0.0012932744187743833 0.004039239669149378 0.00010177520675604837 -0.0008721175743823008
0.19 0.0018989721076326201 0.003467252677203436 3.613684950951089 2.7595929665250685 -0.0010269742625624138 0.0041734739506700215 3.4843362172186025e-05 -0.0010136339472520896
0.191 0.0024261297209184044 0.0037026645389301926 3.8678267187529376 2.4089188984067675 -0.0007046831138389848 0.004266392862351297 -6.186438907549447e-05 -0.00113455794593266
0.192 0.0029899409919826587 0.0038355666937194884 4.048810325011388 2.0290988716435256 -0.0004500203377982977 0.00434722019311524 -0.00017338292831161554 -0.0012174189406175177
0.193 0.003592043186481296 0.003864653345999735 4.243089401841156 1.637487970266453 -8.169064690006596e-05 0.0044209562905434836 -0.00030021333313618646 -0.0013305442554901767
0.194 0.0042309367918241655 0.0038562939891333813 4.362417349332494 1.232576749234149 0.00023634434559255334 0.004463141291761312 -0.0004709572336962626 -0.0014155563414947289
0.195 0.004867382352827011 0.0036952242802203218 4.477939867046803 0.8109651857289698 0.0006150670906457684 0.004455753659522267 -0.0006365847806087258 -0.0014678745699866537
0.196 0.005452486301463803 0.0034384438997027327 4.504129450452993 0.3929772900478203 0.000896634372145389 0.00445370583988214 -0.000861720163000093 -0.001459722740958436
0.197 0.006058879737186179 0.003058460843563639 4.528662604410433 -0.03636336395840973 0.0012241260091081657 0.004425770590082182 -0.0010466662313749053 -0.0014775761013976112
0.198 0.006595028663155083 0.002581374089817311 4.5059255747477565 -0.46431484643174875 0.0015717253049236833 0.004339439701704767 -0.0012186813139014939 -0.001401932481982868
0.199 0.007061004406323918 0.002049219070464975 4.438776139746214 -0.8861525248490536 0.0019258999046566196 0.004226001643038794 -0.001441743743996265 -0.0013218382270990402
0.2 0.0074613242620581435 0.0014074874990553192 4.329307798966874 -1.2948501190749748 0.0022276239540984996 0.004137687269017633 -0.0016050938279837967 -0.001193134865472119
0.201 0.007757665473115151 0.0007357033093100515 4.185905840971345 -1.6957820180221796 0.002581763748518979 0.003992231317770299 -0.0017831527161958544 -0.0010598770288353496
0.202 0.007948167712555392 -6.0581845491446374e-05 4.011388205424777 -2.0862851240298212 0.0028806290751141783 0.0038488654645558373 -0.0019294229179317743 -0.0008913908511203322
0.203 0.008034891463187742 -0.0008616395460936269 3.7902228387981385 -2.4496598416566235 0.0031748057596210494 0.0036474223931142963 -0.0020221917266612776 -0.0007105148958994952
0.204 0.00801299896586929 -0.0016164715123892241 3.5419826662898752 -2.7934488440336147 0.003449002624757762 0.0034570067464234247 -0.0021358020931133656 -0.0004943159090921853
0.205 0.007889136531529393 -0.002438441924094401 3.2606003378914665 -3.1109251132425375 0.0037629759055415554 0.0032252159239144827 -0.0021782659051610676 -0.00026564864749229074
0.206 0.007616781449498831 -0.0031802518301301715 2.952310564565146 -3.4032676977803407 0.004001128034107225 0.002962367925239158 -0.0021868534090022707 -5.2789150161309276e-05
0.207 0.007204421448836313 -0.003922500062503745 2.62087728527034 -3.668511901046366 0.00424471833165632 0.002677206424536842 -0.002204233724659176 0.00021103026144484672
0.208 0.006749102171185917 -0.004601026662231124 2.2611099367113425 -3.8918083033828306 0.004474130087743768 0.00238520111605293 -0.0021491281534223227 0.0004363296255194512
0.209 0.006148592062373935 -0.0051951009423668515 1.8814701210034985 -4.082688287657147 0.004674255777298532 0.0020548201758397357 -0.002058677353055138 0.0006263326396041989
0.21 0.005475102842836331 -0.005726396957507421 1.4896223304945255 -4.237756535753938 0.004848014422969538 0.0017589204050899644 -0.0019489987979558153 0.0008232266914002231
0.211 0.0047730873429946245 -0.00610155254406976 1.0813808548515393 -4.368890909610511 0.0050606102820138985 0.0014089133574763633 -0.00181347109155206 0.0010217732892669317
0.212 0.003960377091039508 -0.006392590849265325 0.6682037346068055 -4.43999054884584 0.005164595923467546 0.001045158212457194 -0.0016600196356223052 0.0011465744874863217
0.213 0.0031573057808355807 -0.00657438524904097 0.24475627078196685 -4.483069746753477 0.005272171929186456 0.0006371732197995594 -0.0014982619317255713 0.0013056507086186247
0.214 0.0023365792835462755 -0.0066212413140005946 -0.17669728524593642 -4.489444007198216 0.005365988535798337 0.0002925011715951245 -0.0012637332993904187 0.0014116258517401148
0.215 0.001491185373750687 -0.006571356651666889 -0.6018393460193583 -4.449472070523183 0.005461721940048278 -0.0001237330831881686 -0.0010610069209651225 0.0014715029633274503
0.216 0.0006771073920786246 -0.00633421852358476 -1.0168959551614387 -4.369310258066161 0.005425267133106009 -0.0005237237471290993 -0.0008344065271187729 0.001490893609337644
0.217 -5.6047554663554345e-05 -0.00604460481448833 -1.4212490962440556 -4.249591382984283 0.005415564167305662 -0.0009453479729412106 -0.0006437955747620713 0.0014833932791571797
0.218 -0.0007645034363449831 -0.005606023080753732 -1.8178476326971886 -4.100998547679851 0.005407479167679445 -0.0013354187464355999 -0.00046087924219936227 0.001463113367968752
0.219 -0.0013763862216620091 -0.005092278731531121 -2.2015260033520008 -3.912940485479986 0.005337948671902366 -0.0017504120288319243 -0.00026061448000267324 0.001382983912479842
0.22 -0.0019022654110601802 -0.004499355907047815 -2.5566087752626547 -3.68479988897016 0.005261447523280424 -0.0021647733819713405 -0.00010668546520047555 0.0012881760839364965
0.221 -0.0023256076967453922 -0.003817795605331879 -2.8876233072777473 -3.4251797961052777 0.005089131941352783 -0.002540380780776765 6.287345198391157e-05 0.0011632749082443976
0.222 -0.0026207033450753804 -0.0030718404221389438 -3.2018142567792984 -3.1386997679708433 0.004978408235261552 -0.0029534611087429045 0.00018237463522661454 0.0010310093601793471
0.223 -0.0027944436559808094 -0.0023305675551506 -3.488819798742308 -2.823615588391104 0.004773804637331516 -0.003306646641373512 0.0002794721515316607 0.0008953035230864294
0.224 -0.0028714894287785453 -0.0015682291092607539 -3.7349284132715432 -2.48236149345679 0.004571317119772007 -0.0037219481931778163 0.00031535338801850875 0.0007340048903003742
0.225 -0.002808129350697624 -0.000801490002935221 -3.945304395670678 -2.117809160356525 0.0042887078709050765 -0.00406067255012205 0.00034686741755778495 0.0005558203842410428
0.226 -0.002624977477795262 -8.700780757856336e-05 -4.131645096116651 -1.7338675866248459 0.004011477893999802 -0.004411758072212052 0.0003662343727188749 0.00039847313245320546
0.227 -0.002353438930846177 0.0005850742725478252 -4.277142622668825 -1.3376857158084128 0.0037224017309427596 -0.004695121087355332 0.00029471068375105773 0.00023534341041125386
0.228 -0.001983365713872617 0.0011990999968474695 -4.379470162030879 -0.9296369171738311 0.0033874189546230725 -0.00501578279433186 0.00029219194734887347 9.97582097850584e-05
0.229 -0.0015303450778727282 0.0017249952009670449 -4.445253690388769 -0.5138420130608685 0.003043866942246566 -0.0052804428698684245 0.00017499558948355125 -2.2214515191019682e-05
0.23 -0.0009486751004262437 0.0021644290744103154 -4.472427915967666 -0.0927078536732373 0.0026587483455908297 -0.005535283490120773 0.00011319841301403552 -0.00013585177131124996
0.231 -0.00037872457553847337 0.0025188320280793135 -4.457152681636977 0.3251132133840254 0.002301801999253927 -0.0057490038119650064 -2.4377669480150676e-05 -0.00020901741812190267
0.232 0.0002881186300066181 0.0027776941223709934 -4.408797391899873 0.7458159337492101 0.0018680213933424047 -0.005938721776545257 -0.00016990989550153123 -0.00026455076255670084
0.233 0.0009425253001034194 0.002916346908362895 -4.318998307222817 1.1528548787637076 0.00141659244715886 -0.0061724033175201394 -0.0002744464253864659 -0.00033348563954777835
0.234 0.0015856347228379846 0.002923226842961262 -4.1864618897706825 1.5568012636333748 0.000952919576278149 -0.006239305544899275 -0.00043107411344770174 -0.00034859058911834186
0.235 0.002247871094607489 0.0028332890244823004 -4.023321342515024 1.9426489296045433 0.0005404581883168497 -0.0063932791337377145 -0.0005966099886622489 -0.00030902622261357103
0.236 0.0028670469849941204 0.0026737472924870456 -3.8168654407729248 2.306173145900962 6.516175181335634e-05 -0.006457715302277973 -0.000669361633271435 -0.0002274212499992314
0.237 0.003428188767589987 0.0023694016027211015 -3.584054172841657 2.653573450646832 -0.0004068687853007094 -0.006457159177838024 -0.0007752660007228889 -0.00018032090396699618
0.238 0.003952212542570944 0.001989714346023231 -3.3164741739493655 2.981257356446824 -0.000916021244363343 -0.006495336268768874 -0.0009114596201926512 -9.806062554320786e-05
0.239 0.004351903797257965 0.0015779180613103533 -3.0132567445332463 3.266864814601135 -0.0013557250291602828 -0.006427729256738903 -0.0009610530614075551 -4.848642603855786e-06
0.24 0.004711813536872549 0.0011102476988549337 -2.696336451618811 3.545862436095389 -0.0018795015590805045 -0.006381821677659127 -0.0010411209081523285 0.0001039750321314922
